!CSV A.01.01
!Agilent Technologies,N5227A,US51270345,A.09.80.20
!Agilent N5227A: A.09.80.20
!Date: Monday, November 26, 2018 16:00:59
!Source: Standard

BEGIN CH1_DATA
Freq(Hz),S11(REAL),S11(IMAG)
10000000,1.0002674,-0.01785804
10100003.344593,1.0004559,-0.018974815
10200006.689187,1.0005057,-0.018762525
10300010.03378,1.0001132,-0.018923581
10400013.378374,1.000147,-0.018839512
10500016.722967,1.0000978,-0.018685117
10600020.067561,0.99991959,-0.019238256
10700023.412154,1.0001801,-0.019488599
10800026.756748,1.0000702,-0.019227603
10900030.101341,1.0001476,-0.019314975
11000033.445935,0.99978387,-0.019679502
11100036.790528,0.99980891,-0.019973898
11200040.135122,0.99977922,-0.019692346
11300043.479715,0.99959403,-0.019472526
11400046.824309,0.99923784,-0.020349205
11500050.168902,0.99923742,-0.02030397
11600053.513495,0.99963391,-0.020657141
11700056.858089,0.9997769,-0.020587638
11800060.202682,0.99944782,-0.021056088
11900063.547276,1.0001733,-0.021336198
12000066.891869,0.99972063,-0.021221157
12100070.236463,0.9999907,-0.021432649
12200073.581056,0.99972057,-0.021663522
12300076.92565,0.99976307,-0.021767484
12400080.270243,0.99991572,-0.021806562
12500083.614837,0.99932915,-0.022684647
12600086.95943,0.9999094,-0.021725638
12700090.304024,0.99969351,-0.022369049
12800093.648617,0.9992314,-0.022133419
12900096.99321,0.99960369,-0.022420414
13000100.337804,0.99938148,-0.02242057
13100103.682397,0.9993335,-0.023109328
13200107.026991,0.99956703,-0.023111884
13300110.371584,0.999479,-0.023154289
13400113.716178,0.99980873,-0.023474146
13500117.060771,0.99938822,-0.023710866
13600120.405365,0.99958622,-0.023756783
13700123.749958,0.99931711,-0.024051171
13800127.094552,0.99973089,-0.023691127
13900130.439145,0.99930608,-0.024352772
14000133.783739,0.99901646,-0.024310227
14100137.128332,0.9995209,-0.024176491
14200140.472926,0.99957979,-0.024816312
14300143.817519,0.99935025,-0.024770439
14400147.162112,0.9992466,-0.024908848
14500150.506706,0.99945748,-0.024968842
14600153.851299,0.99926025,-0.025316741
14700157.195893,0.99933028,-0.025175123
14800160.540486,0.99944854,-0.02560043
14900163.88508,0.99928266,-0.025708314
15000167.229673,0.99941963,-0.025414592
15100170.574267,0.99928069,-0.025818666
15200173.91886,0.99945927,-0.026330663
15300177.263454,0.99949348,-0.026279073
15400180.608047,0.99912024,-0.026246503
15500183.952641,0.99944001,-0.026713766
15600187.297234,0.99938655,-0.026633363
15700190.641827,0.99946237,-0.026821041
15800193.986421,0.99922627,-0.027235935
15900197.331014,0.99895477,-0.026927171
16000200.675608,0.99955487,-0.027302049
16100204.020201,0.99930245,-0.027466003
16200207.364795,0.99889433,-0.027514234
16300210.709388,0.99913096,-0.027643565
16400214.053982,0.99943137,-0.027595958
16500217.398575,0.99933267,-0.028158436
16600220.743169,0.99925989,-0.028014472
16700224.087762,0.99919748,-0.028503699
16800227.432356,0.99924588,-0.028389687
16900230.776949,0.9990958,-0.028803634
17000234.121543,0.99923456,-0.028865594
17100237.466136,0.99901056,-0.029263668
17200240.810729,0.99928707,-0.029229911
17300244.155323,0.99937546,-0.029541759
17400247.499916,0.99915093,-0.029241966
17500250.84451,0.99897105,-0.029776026
17600254.189103,0.99941736,-0.029786237
17700257.533697,0.99914384,-0.029725946
17800260.87829,0.99913365,-0.030231699
17900264.222884,0.99904388,-0.030398123
18000267.567477,0.99900842,-0.030125856
18100270.912071,0.99921989,-0.030709349
18200274.256664,0.99886793,-0.030769164
18300277.601258,0.99923772,-0.031304959
18400280.945851,0.99910015,-0.03098591
18500284.290444,0.99917948,-0.031236686
18600287.635038,0.9991526,-0.031460874
18700290.979631,0.99918514,-0.03160274
18800294.324225,0.99886847,-0.031709097
18900297.668818,0.99893838,-0.031840131
19000301.013412,0.99901706,-0.031862479
19100304.358005,0.99900353,-0.032036599
19200307.702599,0.99927193,-0.032188945
19300311.047192,0.99899745,-0.032459464
19400314.391786,0.99914896,-0.032652453
19500317.736379,0.99891025,-0.032833863
19600321.080973,0.99911904,-0.032782059
19700324.425566,0.99877685,-0.03307227
19800327.77016,0.99898839,-0.033186998
19900331.114753,0.99875665,-0.033255123
20000334.459346,0.99883848,-0.033557136
20100337.80394,0.99867022,-0.033825047
20200341.148533,0.99887598,-0.034037013
20300344.493127,0.99893075,-0.033900749
20400347.83772,0.99886507,-0.034434415
20500351.182314,0.9990685,-0.034427874
20600354.526907,0.99900311,-0.034403287
20700357.871501,0.99890393,-0.034714516
20800361.216094,0.99895436,-0.034887876
20900364.560688,0.99919307,-0.034860525
21000367.905281,0.999156,-0.034927472
21100371.249875,0.99885935,-0.035186615
21200374.594468,0.99898911,-0.03534063
21300377.939062,0.99882138,-0.03571374
21400381.283655,0.99868137,-0.035592474
21500384.628248,0.99896187,-0.035896271
21600387.972842,0.99881923,-0.036047988
21700391.317435,0.99879056,-0.036066283
21800394.662029,0.99886626,-0.036300167
21900398.006622,0.99886644,-0.036459882
22000401.351216,0.99884307,-0.036536857
22100404.695809,0.99883485,-0.036835618
22200408.040403,0.99882483,-0.036978561
22300411.384996,0.99872804,-0.03722696
22400414.72959,0.99878877,-0.037202742
22500418.074183,0.9988156,-0.037404746
22600421.418777,0.99867994,-0.037689999
22700424.76337,0.99882829,-0.037872653
22800428.107963,0.9987551,-0.037781797
22900431.452557,0.99892503,-0.038057644
23000434.79715,0.99875689,-0.038200408
23100438.141744,0.99864972,-0.038363587
23200441.486337,0.99883443,-0.038573407
23300444.830931,0.99860489,-0.038677458
23400448.175524,0.99866903,-0.038866103
23500451.520118,0.9986437,-0.038963675
23600454.864711,0.99865925,-0.039185796
23700458.209305,0.99881852,-0.039499104
23800461.553898,0.99869156,-0.03931522
23900464.898492,0.99862695,-0.039603449
24000468.243085,0.99868977,-0.039747041
24100471.587679,0.99866432,-0.040057942
24200474.932272,0.99869609,-0.040018391
24300478.276865,0.99859148,-0.04041883
24400481.621459,0.99859774,-0.040350199
24500484.966052,0.99871057,-0.040592652
24600488.310646,0.99856395,-0.040531233
24700491.655239,0.99854404,-0.041049171
24800494.999833,0.99860054,-0.041255444
24900498.344426,0.99864084,-0.041059908
25000501.68902,0.99835658,-0.041378845
25100505.033613,0.9987151,-0.041596971
25200508.378207,0.99850249,-0.041597281
25300511.7228,0.99860471,-0.041866727
25400515.067394,0.99859136,-0.041991424
25500518.411987,0.99851823,-0.042053994
25600521.75658,0.99870092,-0.042412754
25700525.101174,0.99860764,-0.042393763
25800528.445767,0.99857014,-0.042724408
25900531.790361,0.99839276,-0.04270586
26000535.134954,0.9985159,-0.043005988
26100538.479548,0.99841768,-0.043105766
26200541.824141,0.99860561,-0.0432107
26300545.168735,0.9984467,-0.043511767
26400548.513328,0.99854976,-0.043674901
26500551.857922,0.99834579,-0.043881129
26600555.202515,0.99855667,-0.043885089
26700558.547109,0.99825329,-0.044056684
26800561.891702,0.99846792,-0.04425953
26900565.236296,0.99833488,-0.044309773
27000568.580889,0.99835438,-0.044624057
27100571.925482,0.99844801,-0.04482368
27200575.270076,0.99824876,-0.044849087
27300578.614669,0.9984445,-0.04514157
27400581.959263,0.99837714,-0.045181807
27500585.303856,0.99842429,-0.045368839
27600588.64845,0.99847585,-0.045583751
27700591.993043,0.99826115,-0.045678746
27800595.337637,0.99824834,-0.045790371
27900598.68223,0.99836516,-0.045987122
28000602.026824,0.99835217,-0.046068434
28100605.371417,0.99843943,-0.046189774
28200608.716011,0.9984867,-0.046424288
28300612.060604,0.99832433,-0.046551984
28400615.405197,0.9984104,-0.046771571
28500618.749791,0.99829203,-0.047058288
28600622.094384,0.99821466,-0.047208171
28700625.438978,0.99833977,-0.047294479
28800628.783571,0.99828959,-0.047532301
28900632.128165,0.99834555,-0.047442202
29000635.472758,0.99821758,-0.047655586
29100638.817352,0.99826145,-0.047761872
29200642.161945,0.99830312,-0.048105896
29300645.506539,0.99808592,-0.048239272
29400648.851132,0.99835974,-0.0484186
29500652.195726,0.99820286,-0.04853018
29600655.540319,0.99816114,-0.048629165
29700658.884913,0.9981522,-0.04875493
29800662.229506,0.99827147,-0.048985682
29900665.574099,0.99818414,-0.049207088
30000668.918693,0.99832195,-0.049186885
30100672.263286,0.99812394,-0.049496718
30200675.60788,0.99807698,-0.049655475
30300678.952473,0.9981938,-0.049726944
30400682.297067,0.99823743,-0.050009828
30500685.64166,0.99821913,-0.050117645
30600688.986254,0.99817449,-0.05018248
30700692.330847,0.99810833,-0.050377067
30800695.675441,0.99821806,-0.050565477
30900699.020034,0.99805969,-0.05075277
31000702.364628,0.99811745,-0.050736386
31100705.709221,0.99820602,-0.050883953
31200709.053815,0.99801636,-0.051190756
31300712.398408,0.99806428,-0.051246393
31400715.743001,0.99805266,-0.051551882
31500719.087595,0.9979285,-0.051558085
31600722.432188,0.99815428,-0.051807854
31700725.776782,0.9979735,-0.052011985
31800729.121375,0.99801016,-0.052159049
31900732.465969,0.99803156,-0.052270349
32000735.810562,0.99792922,-0.05250518
32100739.155156,0.99788666,-0.052606933
32200742.499749,0.9981187,-0.052778881
32300745.844343,0.99798453,-0.052705128
32400749.188936,0.99805832,-0.053043354
32500752.53353,0.99789405,-0.053277146
32600755.878123,0.99789655,-0.053576466
32700759.222716,0.9978444,-0.053551774
32800762.56731,0.99788809,-0.053755656
32900765.911903,0.9979521,-0.053880021
33000769.256497,0.99786258,-0.054006819
33100772.60109,0.99794877,-0.054283336
33200775.945684,0.99775642,-0.054365013
33300779.290277,0.99797958,-0.054475002
33400782.634871,0.99799269,-0.054627549
33500785.979464,0.99788123,-0.054790586
33600789.324058,0.99790764,-0.055083863
33700792.668651,0.99781591,-0.055209663
33800796.013245,0.99783635,-0.055204574
33900799.357838,0.99786973,-0.055490173
34000802.702432,0.99783319,-0.055649161
34100806.047025,0.99772263,-0.055762716
34200809.391618,0.99760222,-0.055955615
34300812.736212,0.99770284,-0.056163695
34400816.080805,0.99789464,-0.056218721
34500819.425399,0.99779558,-0.056426745
34600822.769992,0.99781698,-0.056544039
34700826.114586,0.9976747,-0.056621995
34800829.459179,0.99770749,-0.056942828
34900832.803773,0.99769878,-0.05697754
35000836.148366,0.99771029,-0.05722392
35100839.49296,0.99765056,-0.057260629
35200842.837553,0.99764585,-0.057522178
35300846.182147,0.99776232,-0.057665478
35400849.52674,0.99763453,-0.057772338
35500852.871333,0.99758285,-0.057890128
35600856.215927,0.99758756,-0.058230598
35700859.56052,0.99767983,-0.05835392
35800862.905114,0.99765015,-0.058480591
35900866.249707,0.99763495,-0.058728356
36000869.594301,0.99762529,-0.058847398
36100872.938894,0.99762285,-0.058956832
36200876.283488,0.99742293,-0.059110601
36300879.628081,0.99739242,-0.059407055
36400882.972675,0.99748772,-0.059421472
36500886.317268,0.99753255,-0.059510872
36600889.661862,0.99752241,-0.059767619
36700893.006455,0.99745148,-0.059813783
36800896.351049,0.99754429,-0.060067311
36900899.695642,0.99738806,-0.060207244
37000903.040235,0.99754322,-0.060389649
37100906.384829,0.99734539,-0.060404066
37200909.729422,0.99760896,-0.060672525
37300913.074016,0.99752915,-0.060857717
37400916.418609,0.99756217,-0.060910251
37500919.763203,0.9973951,-0.061213911
37600923.107796,0.99746543,-0.061322782
37700926.45239,0.99744409,-0.061490186
37800929.796983,0.99732012,-0.061681215
37900933.141577,0.99745649,-0.061857581
38000936.48617,0.99750137,-0.062025435
38100939.830764,0.99748087,-0.062105089
38200943.175357,0.99736047,-0.062236764
38300946.51995,0.99742329,-0.062508777
38400949.864544,0.99722821,-0.062612593
38500953.209137,0.99732631,-0.062701225
38600956.553731,0.99740803,-0.062969618
38700959.898324,0.99743617,-0.063098088
38800963.242918,0.99731696,-0.063270889
38900966.587511,0.99728197,-0.063394524
39000969.932105,0.99739861,-0.063575536
39100973.276698,0.99740803,-0.063630886
39200976.621292,0.99737507,-0.063944288
39300979.965885,0.99739867,-0.064073548
39400983.310479,0.99733204,-0.064248212
39500986.655072,0.9972086,-0.064362332
39600989.999666,0.99718279,-0.064599209
39700993.344259,0.99725395,-0.06462504
39800996.688852,0.99719727,-0.064791255
39901000.033446,0.99730271,-0.064934328
40001003.378039,0.9973141,-0.065140389
40101006.722633,0.99712706,-0.065301202
40201010.067226,0.99712759,-0.065366253
40301013.41182,0.99717778,-0.065674111
40401016.756413,0.99709654,-0.065770894
40501020.101007,0.99713373,-0.06592349
40601023.4456,0.99708432,-0.066044264
40701026.790194,0.9971416,-0.066270649
40801030.134787,0.99699348,-0.066437513
40901033.479381,0.99699777,-0.066617332
41001036.823974,0.99703509,-0.066653043
41101040.168568,0.99703908,-0.066817634
41201043.513161,0.99695373,-0.067047082
41301046.857754,0.99699283,-0.06724602
41401050.202348,0.99694574,-0.06729991
41501053.546941,0.99700159,-0.067478731
41601056.891535,0.99699312,-0.067553833
41701060.236128,0.99697465,-0.067786328
41801063.580722,0.99697804,-0.068030536
41901066.925315,0.99698615,-0.068136305
42001070.269909,0.99698579,-0.068327449
42101073.614502,0.99694687,-0.068470389
42201076.959096,0.99684858,-0.068671994
42301080.303689,0.99694335,-0.06870091
42401083.648283,0.99681526,-0.068893723
42501086.992876,0.9969269,-0.069078334
42601090.337469,0.99689931,-0.069242291
42701093.682063,0.99680209,-0.069452912
42801097.026656,0.99693298,-0.069564439
42901100.37125,0.99692065,-0.069870502
43001103.715843,0.99682611,-0.069943562
43101107.060437,0.99686712,-0.070029251
43201110.40503,0.99682105,-0.070248917
43301113.749624,0.99690151,-0.070354201
43401117.094217,0.99678314,-0.070535466
43501120.438811,0.99673808,-0.070685036
43601123.783404,0.9967792,-0.070942432
43701127.127998,0.99675822,-0.070930675
43801130.472591,0.99679571,-0.071155146
43901133.817185,0.99679959,-0.071327411
44001137.161778,0.99664503,-0.07147406
44101140.506371,0.99685526,-0.071665086
44201143.850965,0.99678093,-0.071829103
44301147.195558,0.99671733,-0.071904287
44401150.540152,0.99675477,-0.072062112
44501153.884745,0.99661094,-0.072309241
44601157.229339,0.99662095,-0.072486289
44701160.573932,0.99662668,-0.072515339
44801163.918526,0.99668396,-0.072785303
44901167.263119,0.99668205,-0.07289996
45001170.607713,0.99659628,-0.073047459
45101173.952306,0.99663949,-0.073209345
45201177.2969,0.99645269,-0.073401086
45301180.641493,0.99653935,-0.073560871
45401183.986086,0.99657172,-0.073719658
45501187.33068,0.99654186,-0.073841423
45601190.675273,0.99647689,-0.074049488
45701194.019867,0.99654424,-0.074150391
45801197.36446,0.99649698,-0.074286431
45901200.709054,0.99648869,-0.074450314
46001204.053647,0.99646926,-0.074635625
46101207.398241,0.99639016,-0.074733123
46201210.742834,0.99648762,-0.074944533
46301214.087428,0.99649453,-0.075153358
46401217.432021,0.99637365,-0.075298853
46501220.776615,0.99639434,-0.075407453
46601224.121208,0.99635655,-0.075634494
46701227.465802,0.99633408,-0.075719655
46801230.810395,0.9963432,-0.075913303
46901234.154988,0.99638695,-0.076134935
47001237.499582,0.99632144,-0.07627596
47101240.844175,0.996346,-0.076421067
47201244.188769,0.99622852,-0.076563194
47301247.533362,0.99635464,-0.076726116
47401250.877956,0.99640089,-0.076846071
47501254.222549,0.99623585,-0.076926656
47601257.567143,0.99626845,-0.077176169
47701260.911736,0.99624938,-0.07730981
47801264.25633,0.99629283,-0.077461183
47901267.600923,0.9961642,-0.077679127
48001270.945517,0.99624342,-0.077733323
48101274.29011,0.99625659,-0.078022227
48201277.634704,0.99621379,-0.078099936
48301280.979297,0.99620521,-0.078256972
48401284.32389,0.99617803,-0.078420676
48501287.668484,0.99622124,-0.078609012
48601291.013077,0.99614722,-0.078706898
48701294.357671,0.99608773,-0.078829467
48801297.702264,0.99625564,-0.079094693
48901301.046858,0.99618,-0.079201952
49001304.391451,0.99607342,-0.079327151
49101307.736045,0.99603832,-0.079539604
49201311.080638,0.99609447,-0.079720154
49301314.425232,0.99616367,-0.079850763
49401317.769825,0.99596882,-0.08003597
49501321.114419,0.99595225,-0.080179609
49601324.459012,0.99608439,-0.080385879
49701327.803605,0.99610215,-0.080458596
49801331.148199,0.99596131,-0.08069066
49901334.492792,0.99595642,-0.080835514
50001337.837386,0.99594706,-0.080972604
50101341.181979,0.9960162,-0.08112216
50201344.526573,0.99593025,-0.081265859
50301347.871166,0.9959237,-0.081492305
50401351.21576,0.99597251,-0.081611
50501354.560353,0.99597633,-0.081693232
50601357.904947,0.99592042,-0.081846133
50701361.24954,0.99588841,-0.082099453
50801364.594134,0.99578452,-0.082238406
50901367.938727,0.99579298,-0.082376249
51001371.283321,0.99579656,-0.082530752
51101374.627914,0.99588042,-0.082704782
51201377.972507,0.99582016,-0.082834177
51301381.317101,0.99571639,-0.083012573
51401384.661694,0.99581259,-0.083123788
51501388.006288,0.99576885,-0.083352439
51601391.350881,0.99576062,-0.083446868
51701394.695475,0.99583048,-0.083665282
51801398.040068,0.99572551,-0.083761342
51901401.384662,0.99580884,-0.083972611
52001404.729255,0.99564248,-0.084107533
52101408.073849,0.99561888,-0.084331326
52201411.418442,0.99564224,-0.084532149
52301414.763036,0.99565804,-0.084519953
52401418.107629,0.99560606,-0.084761597
52501421.452222,0.99562323,-0.084887154
52601424.796816,0.99556643,-0.085064895
52701428.141409,0.99562395,-0.085293457
52801431.486003,0.99553347,-0.085404091
52901434.830596,0.99551696,-0.085495815
53001438.17519,0.99605024,-0.085372724
53101441.519783,0.9960745,-0.08559712
53201444.864377,0.99616951,-0.085667931
53301448.20897,0.99592441,-0.085891359
53401451.553564,0.99614155,-0.086062416
53501454.898157,0.99603021,-0.086051144
53601458.242751,0.99599606,-0.086239345
53701461.587344,0.99615896,-0.086405188
53801464.931938,0.99597275,-0.086723886
53901468.276531,0.99581105,-0.086729817
54001471.621124,0.99583888,-0.086968526
54101474.965718,0.99599534,-0.087063208
54201478.310311,0.99592942,-0.08708369
54301481.654905,0.99574894,-0.087265149
54401484.999498,0.99599206,-0.087555848
54501488.344092,0.99611139,-0.087518983
54601491.688685,0.99588877,-0.087854132
54701495.033279,0.99587607,-0.087948032
54801498.377872,0.99580014,-0.088333234
54901501.722466,0.99593693,-0.088396505
55001505.067059,0.99598706,-0.088466205
55101508.411653,0.99571145,-0.088656962
55201511.756246,0.99565053,-0.088765688
55301515.100839,0.99568629,-0.089068033
55401518.445433,0.99578989,-0.089142844
55501521.790026,0.99580872,-0.089342602
55601525.13462,0.9956407,-0.089405812
55701528.479213,0.99569476,-0.08965639
55801531.823807,0.99561024,-0.08990524
55901535.1684,0.99562198,-0.089760557
56001538.512994,0.99574506,-0.090232961
56101541.857587,0.99574453,-0.090246953
56201545.202181,0.99565887,-0.090269312
56301548.546774,0.99540424,-0.090520337
56401551.891368,0.99550372,-0.090729393
56501555.235961,0.99543488,-0.090840667
56601558.580555,0.9954682,-0.091242947
56701561.925148,0.99536556,-0.091329709
56801565.269741,0.99556035,-0.091218449
56901568.614335,0.99533975,-0.091517821
57001571.958928,0.99537206,-0.09161973
57101575.303522,0.99544626,-0.091761351
57201578.648115,0.99551326,-0.092167646
57301581.992709,0.99533409,-0.09216474
57401585.337302,0.99549818,-0.092248671
57501588.681896,0.99546778,-0.092420667
57601592.026489,0.9953025,-0.092816278
57701595.371083,0.99535257,-0.092966542
57801598.715676,0.99544984,-0.09304212
57901602.06027,0.99539155,-0.093135931
58001605.404863,0.99540973,-0.093350247
58101608.749457,0.99524313,-0.093287803
58201612.09405,0.99517417,-0.093504168
58301615.438643,0.99515587,-0.093668908
58401618.783237,0.99513668,-0.093902059
58501622.12783,0.99530953,-0.093944363
