!CSV A.01.01
!Agilent Technologies,N5227A,US51270345,A.09.80.20
!Agilent N5227A: A.09.80.20
!Date: Monday, November 26, 2018 15:59:50
!Source: Standard

BEGIN CH1_DATA
Freq(Hz),S12(REAL),S12(IMAG)
10000000,-0.00024415524,-0.00018947167
10100003.344593,5.3424988e-006,6.2349063e-005
10200006.689187,-7.7673081e-005,-8.0230908e-005
10300010.03378,-0.00022392291,-4.8796333e-005
10400013.378374,2.8257811e-005,-2.9689394e-005
10500016.722967,-0.00024944654,-0.00010461772
10600020.067561,-0.00013585281,-1.9416673e-005
10700023.412154,-0.00014503494,-9.4448733e-005
10800026.756748,-0.00031147539,5.5782559e-005
10900030.101341,0.00010058326,4.5460474e-006
11000033.445935,3.0913587e-005,0.00029920239
11100036.790528,-7.079255e-005,0.00042267414
11200040.135122,0.0002284049,0.00019767898
11300043.479715,-0.00013743981,0.00025717754
11400046.824309,-4.3152075e-005,-0.00014747944
11500050.168902,5.308578e-005,-0.00018195194
11600053.513495,8.7769084e-005,9.1027287e-005
11700056.858089,0.00011691263,-0.00018678095
11800060.202682,7.3006086e-005,1.605326e-005
11900063.547276,-0.00019950427,-0.00013971102
12000066.891869,-0.00010359772,9.6228745e-005
12100070.236463,9.2460527e-005,-1.0013083e-005
12200073.581056,1.5489684e-005,3.9600258e-005
12300076.92565,6.3904023e-005,6.8819973e-006
12400080.270243,-2.5383233e-005,-7.9361183e-005
12500083.614837,-0.00010231423,0.00011343617
12600086.95943,-6.4095948e-005,7.8255449e-005
12700090.304024,-3.4247245e-005,-0.00028686339
12800093.648617,-2.2841028e-005,2.4539415e-005
12900096.99321,0.00015328004,0.00011824907
13000100.337804,6.736489e-005,-7.0343624e-005
13100103.682397,-0.00012902511,-4.0564437e-006
13200107.026991,1.0565567e-005,-2.0003643e-005
13300110.371584,3.9965329e-005,4.5392997e-005
13400113.716178,2.7142709e-005,4.0962175e-005
13500117.060771,0.00014282274,5.261238e-005
13600120.405365,-0.00023245052,0.00013080456
13700123.749958,-7.848777e-005,-0.00011422401
13800127.094552,-5.2645071e-005,5.4655855e-005
13900130.439145,-0.00011314872,-4.8213519e-006
14000133.783739,5.9679922e-005,-7.4195552e-005
14100137.128332,-8.0731428e-005,0.00020077221
14200140.472926,-9.5961099e-005,0.00013839891
14300143.817519,3.7614318e-005,-0.00010772797
14400147.162112,0.00012367849,-9.4851872e-005
14500150.506706,2.9609626e-005,3.8043851e-005
14600153.851299,-1.6887419e-005,0.00011200624
14700157.195893,4.3759523e-005,3.9534123e-005
14800160.540486,-4.9829134e-005,-1.5381805e-006
14900163.88508,-8.9781015e-006,-8.033208e-005
15000167.229673,5.1736009e-005,0.00011422022
15100170.574267,-0.00015767425,0.00018561786
15200173.91886,9.0538109e-005,8.1470243e-005
15300177.263454,-2.185674e-006,-7.8180106e-005
15400180.608047,7.4990945e-005,-1.7254391e-005
15500183.952641,-3.4008139e-005,-4.3750046e-005
15600187.297234,0.00010329212,-2.95554e-005
15700190.641827,-7.6443848e-006,-4.5425975e-005
15800193.986421,-5.1333031e-005,-9.2193754e-005
15900197.331014,0.00010049024,-5.3981079e-005
16000200.675608,-0.00012175287,1.4145038e-005
16100204.020201,-2.5325764e-005,0.00012282847
16200207.364795,2.9573061e-005,-1.3583683e-005
16300210.709388,1.7084052e-005,-2.9467881e-005
16400214.053982,4.9379385e-005,-1.4447345e-007
16500217.398575,-2.9661325e-005,2.6855952e-007
16600220.743169,2.7318947e-005,0.00010682202
16700224.087762,4.9995564e-005,7.5583645e-005
16800227.432356,4.7655038e-005,-2.0356547e-005
16900230.776949,-0.00014368916,0.00011060523
17000234.121543,-3.8647682e-005,-3.0459316e-006
17100237.466136,-2.5910658e-005,5.2579166e-005
17200240.810729,-8.7014756e-005,1.7910621e-005
17300244.155323,-0.00015321588,0.00010759069
17400247.499916,-7.0338639e-005,9.6870162e-006
17500250.84451,2.7645625e-005,0.00012418817
17600254.189103,-3.3978791e-005,-7.1838025e-005
17700257.533697,9.2924529e-006,6.3326993e-006
17800260.87829,-1.743249e-005,-5.7828202e-005
17900264.222884,-9.9615885e-005,-4.0983636e-005
18000267.567477,3.3554632e-005,3.8704991e-005
18100270.912071,1.6277015e-006,-7.8939192e-006
18200274.256664,-8.6674176e-005,2.8973414e-005
18300277.601258,-2.5362973e-005,2.7370346e-005
18400280.945851,-8.4377578e-005,-3.415524e-005
18500284.290444,-1.2855307e-005,3.1341839e-005
18600287.635038,-1.9941401e-005,-2.8760427e-005
18700290.979631,-1.1561245e-005,-6.8165056e-005
18800294.324225,0.00012776752,4.7001871e-005
18900297.668818,-4.32665e-005,-9.8429955e-006
19000301.013412,-9.3857765e-005,-2.1252357e-005
19100304.358005,-6.5400154e-006,-4.8716385e-005
19200307.702599,3.6995876e-005,3.3039789e-005
19300311.047192,2.0269943e-005,1.1578117e-005
19400314.391786,-2.1666901e-005,1.6085894e-005
19500317.736379,-6.8168342e-006,-7.8315177e-005
19600321.080973,8.355084e-006,4.2169315e-005
19700324.425566,5.6161916e-005,-5.7112476e-005
19800327.77016,0.00017745396,-4.0322766e-006
19900331.114753,1.2029601e-005,2.6369022e-005
20000334.459346,0.00015165233,-5.9907852e-005
20100337.80394,2.324904e-005,-6.0710445e-005
20200341.148533,-9.2284514e-005,-5.1558345e-005
20300344.493127,-5.4249354e-005,-8.0345213e-005
20400347.83772,4.8098505e-006,2.4146364e-006
20500351.182314,2.690918e-005,-4.4372911e-005
20600354.526907,1.7626251e-005,-1.6854961e-005
20700357.871501,-1.9612396e-006,8.4824233e-006
20800361.216094,-1.8514178e-005,-2.8739827e-005
20900364.560688,-5.5464523e-005,4.3275861e-005
21000367.905281,-4.4799919e-005,-5.2669733e-005
21100371.249875,2.2103344e-005,-2.5351846e-005
21200374.594468,-8.1529824e-006,1.073696e-005
21300377.939062,1.6881111e-005,5.4868036e-005
21400381.283655,-2.762507e-005,2.573828e-005
21500384.628248,2.4057194e-005,-9.8436176e-005
21600387.972842,5.6893259e-006,-6.8671703e-005
21700391.317435,-3.8137634e-005,-3.0846295e-005
21800394.662029,5.2648131e-005,-2.3380397e-005
21900398.006622,-1.321662e-005,9.0836227e-005
22000401.351216,6.1224891e-005,6.1943072e-005
22100404.695809,6.1074526e-005,-1.3447283e-005
22200408.040403,4.8970837e-006,-3.6623183e-007
22300411.384996,0.0001141103,1.7043467e-005
22400414.72959,-2.0340827e-005,-8.5122529e-006
22500418.074183,-8.3576006e-006,-4.4773627e-005
22600421.418777,6.4699445e-005,3.646105e-005
22700424.76337,-8.9643923e-005,-5.4710119e-005
22800428.107963,2.1250145e-005,7.3492943e-006
22900431.452557,-1.1545616e-005,-1.3766916e-005
23000434.79715,-9.0038411e-005,-1.8023264e-005
23100438.141744,-3.3185221e-005,-6.4840315e-005
23200441.486337,-5.1757845e-005,-2.2609975e-005
23300444.830931,6.9748389e-006,-2.3063529e-005
23400448.175524,-4.2070828e-006,1.1377373e-005
23500451.520118,-2.9171511e-005,4.076762e-005
23600454.864711,-5.8160487e-005,3.2110289e-005
23700458.209305,5.2649643e-006,2.8401325e-007
23800461.553898,3.3893622e-005,1.054937e-005
23900464.898492,5.350904e-005,-4.6875619e-005
24000468.243085,-1.3719576e-006,-4.4536329e-005
24100471.587679,4.4209115e-005,6.4453998e-005
24200474.932272,-3.6018588e-005,-2.1849905e-006
24300478.276865,3.1249717e-006,2.0117131e-006
24400481.621459,-9.7350727e-005,4.1139589e-005
24500484.966052,3.6221303e-005,5.9931237e-005
24600488.310646,3.2191354e-005,-2.2083548e-005
24700491.655239,-3.3794775e-005,2.6719046e-005
24800494.999833,-1.4730421e-005,6.2823369e-006
24900498.344426,2.8103097e-005,3.1846881e-005
25000501.68902,-2.080483e-005,-2.5554236e-005
25100505.033613,-2.741873e-006,-1.3678522e-005
25200508.378207,-6.758703e-006,2.014924e-005
25300511.7228,-3.4460604e-006,-1.6152688e-005
25400515.067394,-3.6711815e-005,1.2796536e-005
25500518.411987,-2.1894883e-005,3.4901226e-005
25600521.75658,-4.8966776e-005,-5.8905891e-005
25700525.101174,-6.0554328e-005,-2.8499258e-005
25800528.445767,-1.2308072e-005,-5.0136673e-006
25900531.790361,2.6385334e-005,1.2705067e-005
26000535.134954,1.8872763e-005,-5.8674937e-005
26100538.479548,1.460445e-005,1.3522882e-005
26200541.824141,-3.0516248e-005,-2.303104e-005
26300545.168735,5.7132413e-005,1.4905499e-006
26400548.513328,-8.3848354e-006,-3.769946e-006
26500551.857922,-4.6495247e-006,2.3239527e-005
26600555.202515,4.194284e-005,1.9394904e-006
26700558.547109,-1.6432467e-005,4.5015691e-005
26800561.891702,1.7185264e-005,1.7477996e-005
26900565.236296,-5.5933855e-005,-7.2027256e-006
27000568.580889,1.5864322e-005,2.8292645e-006
27100571.925482,3.112336e-005,-6.8059844e-006
27200575.270076,7.5382245e-006,1.2886033e-005
27300578.614669,4.064711e-006,1.2995484e-005
27400581.959263,1.5555643e-006,9.2493965e-006
27500585.303856,7.3801995e-005,-6.7995621e-005
27600588.64845,-6.2816362e-005,-5.1619359e-006
27700591.993043,-2.3927771e-005,-3.500361e-005
27800595.337637,-3.2287269e-005,-5.3692524e-006
27900598.68223,-2.7051565e-005,2.6797356e-005
28000602.026824,-3.5642115e-005,4.8563044e-005
28100605.371417,-2.0187906e-007,1.7959725e-005
28200608.716011,1.2499952e-005,-1.1619659e-005
28300612.060604,-9.2436485e-006,2.0925459e-005
28400615.405197,-1.8205741e-006,-0.00010349676
28500618.749791,1.9910145e-005,-1.6843605e-005
28600622.094384,-1.9253221e-005,-4.2621807e-005
28700625.438978,-2.1086204e-005,-6.9055888e-005
28800628.783571,-3.3358226e-006,-1.1867749e-006
28900632.128165,1.5984055e-005,-3.8206712e-005
29000635.472758,-8.7482304e-006,4.2115407e-005
29100638.817352,-1.7062095e-005,-1.3808051e-005
29200642.161945,1.4791092e-005,9.5839105e-006
29300645.506539,-1.0410312e-005,-2.9038218e-005
29400648.851132,4.9065848e-006,-1.643157e-005
29500652.195726,-2.0286463e-005,2.5122379e-005
29600655.540319,7.4272375e-006,-5.2572896e-006
29700658.884913,2.7895529e-005,3.539084e-005
29800662.229506,-3.6318343e-005,-2.837618e-005
29900665.574099,-1.7199169e-005,4.264552e-006
30000668.918693,-1.2763497e-005,1.4049186e-005
30100672.263286,6.9822067e-006,2.1016502e-005
30200675.60788,4.6234236e-005,2.5533622e-005
30300678.952473,3.1733898e-006,-2.9081809e-006
30400682.297067,9.6846843e-006,-3.980357e-005
30500685.64166,9.7207912e-006,-2.189469e-005
30600688.986254,4.4738328e-005,6.3267439e-006
30700692.330847,2.7681561e-005,-2.0005442e-005
30800695.675441,4.0523526e-005,3.1758056e-005
30900699.020034,2.8683306e-005,-9.279298e-006
31000702.364628,-1.1275442e-005,1.1566416e-005
31100705.709221,-3.4270822e-006,2.6751768e-005
31200709.053815,-2.545707e-005,9.6086078e-006
31300712.398408,2.8892922e-005,-6.2894678e-006
31400715.743001,-3.5535725e-006,5.6418627e-005
31500719.087595,2.7438575e-005,-4.449164e-005
31600722.432188,2.5031082e-005,1.1898424e-005
31700725.776782,2.4859397e-005,5.3603508e-005
31800729.121375,1.5302401e-005,4.4075468e-006
31900732.465969,-2.6554721e-006,-2.2792294e-006
32000735.810562,7.197777e-006,-1.0194346e-005
32100739.155156,-2.6711288e-005,1.5382207e-005
32200742.499749,-2.9270017e-005,-5.7546698e-005
32300745.844343,-1.8440856e-005,1.9906731e-005
32400749.188936,9.7678703e-006,3.0587849e-005
32500752.53353,6.0073187e-005,2.0515476e-005
32600755.878123,-3.325197e-006,-3.2871485e-006
32700759.222716,3.3896111e-005,-4.7603666e-005
32800762.56731,5.3175527e-006,-1.2992023e-005
32900765.911903,-1.7691329e-005,-3.7954251e-005
33000769.256497,-1.7731567e-005,-1.5949796e-005
33100772.60109,2.3920173e-005,-2.6477484e-005
33200775.945684,-5.866767e-006,7.4168292e-006
33300779.290277,1.5345655e-005,3.2901822e-005
33400782.634871,-2.7953851e-005,-6.8561512e-006
33500785.979464,-1.6487211e-006,3.2707117e-005
33600789.324058,-1.3166647e-006,-1.6666296e-007
33700792.668651,-1.3909833e-005,-2.3122431e-005
33800796.013245,-3.7028716e-005,6.0882589e-006
33900799.357838,-1.427957e-005,2.8663782e-005
34000802.702432,-8.3627283e-006,-3.3039691e-005
34100806.047025,5.590366e-005,1.1603663e-005
34200809.391618,-4.3542404e-005,-2.0193011e-005
34300812.736212,-5.8340178e-005,-1.4115482e-005
34400816.080805,4.5267416e-006,-1.351803e-005
34500819.425399,-2.0810723e-005,-3.381338e-005
34600822.769992,9.0614785e-006,-2.1744258e-005
34700826.114586,-1.7689825e-005,-1.2877029e-005
34800829.459179,-1.4115813e-005,-1.4104605e-006
34900832.803773,2.8170625e-005,1.6453951e-005
35000836.148366,1.7908184e-005,2.9507049e-005
35100839.49296,4.8900115e-006,-5.0433232e-006
35200842.837553,4.6430254e-005,1.6708185e-005
35300846.182147,-6.7302517e-006,1.0206638e-005
35400849.52674,3.7712263e-005,-3.6159268e-005
35500852.871333,8.6314558e-006,-3.0994139e-005
35600856.215927,-1.9585225e-006,3.3014083e-005
35700859.56052,2.8372608e-005,1.149479e-005
35800862.905114,-3.3851e-005,-6.7510705e-006
35900866.249707,2.7057467e-005,1.0448595e-005
36000869.594301,1.1815774e-005,-1.2373796e-005
36100872.938894,-6.678122e-005,5.0242728e-005
36200876.283488,-3.0245571e-006,-3.5390742e-005
36300879.628081,5.6896424e-006,9.3892613e-006
36400882.972675,4.4339762e-005,1.611593e-005
36500886.317268,-2.8958416e-006,1.025336e-005
36600889.661862,7.6206361e-006,-4.9131127e-006
36700893.006455,5.6698887e-006,-1.4175142e-005
36800896.351049,-2.7648557e-005,-3.9099675e-007
36900899.695642,1.5542975e-005,-8.0111122e-006
37000903.040235,2.6806685e-005,1.4790467e-005
37100906.384829,5.3576073e-006,3.1419734e-006
37200909.729422,-3.7358033e-005,-1.9779631e-005
37300913.074016,1.160552e-005,3.8178232e-006
37400916.418609,-9.8080345e-006,-2.8274962e-006
37500919.763203,2.1252896e-005,2.9433834e-006
37600923.107796,-1.3905617e-005,-2.7362516e-005
37700926.45239,4.9344699e-006,-2.3543913e-005
37800929.796983,-2.9978784e-005,-3.3312273e-005
37900933.141577,-8.7242952e-006,1.6037699e-005
38000936.48617,-2.0315965e-006,3.163658e-005
38100939.830764,3.4212688e-005,-1.1773004e-005
38200943.175357,8.1224571e-006,-2.2042606e-005
38300946.51995,-1.0982003e-005,5.8966812e-006
38400949.864544,2.293426e-005,-7.0147034e-006
38500953.209137,-8.2943179e-006,6.3408152e-006
38600956.553731,-1.3618103e-005,-4.306884e-006
38700959.898324,-1.1795669e-005,4.608863e-006
38800963.242918,2.5500744e-005,-2.6434225e-005
38900966.587511,-5.1768257e-006,2.350485e-005
39000969.932105,4.3271543e-006,-7.6198712e-006
39100973.276698,-2.097463e-005,1.3884398e-005
39200976.621292,-1.0340594e-005,-2.6787e-006
39300979.965885,-9.4101406e-006,-2.27899e-005
39400983.310479,-1.7901689e-006,1.9373751e-005
39500986.655072,-6.2379222e-008,-3.6486115e-005
39600989.999666,-3.4926202e-006,3.3417655e-005
39700993.344259,1.0963087e-005,-5.471396e-006
39800996.688852,1.6850445e-006,1.9650864e-005
39901000.033446,-5.1356205e-006,-2.3646548e-005
40001003.378039,3.7427401e-006,1.0616983e-005
40101006.722633,2.4940196e-005,2.5617021e-005
40201010.067226,-1.1820643e-005,-1.5374715e-005
40301013.41182,-8.3052892e-006,-4.8686443e-006
40401016.756413,-2.4479993e-006,2.8250881e-005
40501020.101007,3.1575739e-005,1.0513393e-005
40601023.4456,-6.6073699e-006,-1.4139691e-005
40701026.790194,-9.8683895e-006,-2.3619088e-005
40801030.134787,7.5682219e-006,-2.0411086e-005
40901033.479381,-2.1668626e-005,4.913672e-006
41001036.823974,-2.4665801e-006,-2.1564269e-005
41101040.168568,-2.4073427e-006,1.2244886e-005
41201043.513161,-2.835168e-005,-1.3979872e-005
41301046.857754,2.4029086e-005,-1.6771492e-005
41401050.202348,-2.6945011e-006,5.9717613e-006
41501053.546941,1.5268375e-005,2.4361811e-006
41601056.891535,-3.9584324e-006,-2.1921355e-006
41701060.236128,1.2350607e-005,-6.1048954e-006
41801063.580722,3.4292398e-008,7.8634575e-006
41901066.925315,-1.3586528e-005,-2.2930083e-006
42001070.269909,1.9578403e-005,-2.4004494e-005
42101073.614502,-1.8260362e-006,-4.2190886e-006
42201076.959096,1.1832047e-005,1.0488962e-005
42301080.303689,-9.9274293e-006,2.9808452e-006
42401083.648283,-1.5514041e-005,1.4229659e-005
42501086.992876,7.6039082e-006,-2.3681345e-005
42601090.337469,-1.3886172e-005,1.203756e-005
42701093.682063,-3.8617796e-005,6.5669392e-006
42801097.026656,-2.4729488e-005,7.2621574e-006
42901100.37125,-1.9231824e-005,-1.5891166e-005
43001103.715843,-1.2458152e-005,-2.0617867e-005
43101107.060437,1.4370813e-005,6.8623458e-006
43201110.40503,-2.0375173e-005,7.5440121e-006
43301113.749624,-1.0404492e-006,-1.7729835e-005
43401117.094217,-1.1808108e-005,4.9847922e-006
43501120.438811,3.0698342e-007,-2.3279426e-005
43601123.783404,-4.3395385e-006,-1.4761968e-005
43701127.127998,1.2355477e-005,3.9439328e-006
43801130.472591,-2.073784e-005,-1.2269876e-005
43901133.817185,1.8571649e-005,-1.3065966e-005
44001137.161778,-2.0672085e-005,6.3782072e-006
44101140.506371,1.7166936e-005,-1.3669833e-005
44201143.850965,-1.8584973e-005,-2.524995e-005
44301147.195558,-1.7155353e-005,-1.9645402e-005
44401150.540152,1.0662888e-005,2.3491024e-005
44501153.884745,7.6821143e-006,-3.2039663e-006
44601157.229339,-5.5517821e-006,1.5232586e-005
44701160.573932,2.0721633e-005,2.7404401e-006
44801163.918526,2.0818225e-005,9.9728059e-006
44901167.263119,1.4257936e-005,-2.8448074e-005
45001170.607713,-1.1786354e-005,9.2127357e-006
45101173.952306,-9.8850969e-006,9.3299323e-006
45201177.2969,2.3924363e-006,7.5281255e-006
45301180.641493,1.319267e-006,-5.2382666e-006
45401183.986086,7.1149128e-007,-1.0182102e-005
45501187.33068,2.572304e-005,1.999467e-005
45601190.675273,1.5437983e-005,-2.4169871e-005
45701194.019867,2.0960357e-005,-3.5104094e-006
45801197.36446,-1.6987129e-005,-1.0354998e-005
45901200.709054,1.9243469e-005,-1.5053064e-005
46001204.053647,-5.8026308e-006,-1.1004489e-006
46101207.398241,1.4591234e-005,2.857507e-005
46201210.742834,1.7608185e-005,1.4501338e-005
46301214.087428,3.0913783e-005,-2.8012853e-005
46401217.432021,4.3733411e-007,3.2330352e-006
46501220.776615,3.0594427e-005,1.2007872e-005
46601224.121208,1.2402092e-005,1.0123586e-005
46701227.465802,-9.4213819e-006,-2.7074061e-006
46801230.810395,1.7664387e-006,-4.618862e-006
46901234.154988,1.923186e-005,-1.3243263e-005
47001237.499582,2.2786038e-005,-7.3904266e-006
47101240.844175,-8.6579812e-006,1.7525324e-005
47201244.188769,1.3700802e-005,-4.8150123e-006
47301247.533362,-8.1424751e-006,-9.4596962e-006
47401250.877956,-1.9533593e-006,7.8140811e-006
47501254.222549,2.1282787e-005,6.6746111e-006
47601257.567143,8.4811845e-006,3.2730274e-008
47701260.911736,-5.5000442e-006,-9.6890972e-006
47801264.25633,2.5882559e-006,-6.0148609e-006
47901267.600923,3.1706546e-005,-1.8217859e-005
48001270.945517,7.3322067e-006,6.2176031e-007
48101274.29011,2.379276e-005,-1.3305356e-005
48201277.634704,-8.448952e-006,-1.9595876e-005
48301280.979297,-1.8810467e-006,-2.4602614e-005
48401284.32389,-7.2421503e-006,-8.8477382e-006
48501287.668484,2.5330244e-006,-2.0229687e-005
48601291.013077,-2.180483e-005,-1.5494827e-005
48701294.357671,8.1291892e-006,-2.2477047e-006
48801297.702264,-8.0606651e-006,-2.0309237e-005
48901301.046858,1.2000341e-005,2.4174664e-005
49001304.391451,1.0057486e-005,3.0069702e-007
49101307.736045,-8.9093473e-006,-1.0601178e-005
49201311.080638,2.4042429e-005,2.1831849e-005
49301314.425232,-1.072925e-005,-1.5803538e-005
49401317.769825,-8.1690596e-006,9.3241706e-006
49501321.114419,-5.7617594e-006,1.5111006e-005
49601324.459012,3.9234856e-006,2.9218127e-006
49701327.803605,-1.2689123e-005,-1.3818026e-005
49801331.148199,2.6706832e-006,-3.9078618e-006
49901334.492792,9.6365047e-006,-2.9661467e-006
50001337.837386,1.6231334e-005,2.1352704e-005
50101341.181979,6.7796996e-006,-1.3000913e-005
50201344.526573,-1.5362742e-005,-8.5572874e-006
50301347.871166,-1.3272706e-005,1.6094507e-005
50401351.21576,-2.3738608e-005,-4.7411132e-007
50501354.560353,1.3803076e-006,3.381195e-006
50601357.904947,-2.074426e-006,6.2833146e-006
50701361.24954,-1.6169044e-005,1.025597e-005
50801364.594134,-1.8192597e-005,6.3318416e-006
50901367.938727,1.3232406e-005,1.9916468e-005
51001371.283321,1.421988e-005,1.1546658e-005
51101374.627914,2.6519656e-006,-1.1451889e-005
51201377.972507,5.6931012e-006,1.4711849e-005
51301381.317101,-2.7157089e-006,-1.4651991e-005
51401384.661694,1.5758389e-005,-1.1538616e-005
51501388.006288,-2.8096024e-006,-3.2279677e-005
