!CSV A.01.01
!Agilent Technologies,N5227A,US51270345,A.09.80.20
!Agilent N5227A: A.09.80.20
!Date: Monday, November 26, 2018 16:00:36
!Source: Standard

BEGIN CH1_DATA
Freq(Hz),S12(REAL),S12(IMAG)
10000000,7.4883552e-005,1.8870058e-005
10100003.344593,-0.00025801611,6.2360996e-005
10200006.689187,0.00011751822,-0.00013398995
10300010.03378,0.00030775552,0.0001027773
10400013.378374,0.00024391417,2.6154326e-005
10500016.722967,-0.00025316732,-0.00013161878
10600020.067561,-0.00023320886,0.00013535061
10700023.412154,-4.0568684e-005,-0.00016244198
10800026.756748,9.0874644e-005,-0.00025777175
10900030.101341,-6.3621796e-005,-0.00010758814
11000033.445935,-9.4708259e-005,-0.00011071812
11100036.790528,-9.7723947e-005,-0.00024717051
11200040.135122,6.1080304e-006,-1.5546468e-005
11300043.479715,-3.0493809e-005,0.00022149757
11400046.824309,-0.0001150801,-0.00029277927
11500050.168902,-3.0897321e-005,0.00019129309
11600053.513495,6.1562328e-005,0.00039214172
11700056.858089,0.0001296955,0.00010576587
11800060.202682,-0.00024055895,8.6954515e-006
11900063.547276,0.00014181439,-5.0659361e-005
12000066.891869,0.00013285606,9.5845178e-005
12100070.236463,8.3710962e-005,-0.00017213287
12200073.581056,3.1313433e-005,4.7874277e-005
12300076.92565,-9.2456205e-005,-5.7691203e-005
12400080.270243,-0.00011428147,-6.8183341e-005
12500083.614837,0.00013752945,0.00010891409
12600086.95943,-9.9454184e-005,-0.00011723726
12700090.304024,0.00010758977,0.00021320405
12800093.648617,-6.1099934e-005,-2.3700032e-007
12900096.99321,-8.6186395e-005,5.0251107e-005
13000100.337804,-0.00012522523,-2.6216851e-006
13100103.682397,-0.00015165689,0.00014690573
13200107.026991,9.2961935e-005,8.1814185e-005
13300110.371584,8.0396021e-005,-0.00023493223
13400113.716178,0.00021726303,-0.00017368585
13500117.060771,-8.1904233e-005,-0.00013306091
13600120.405365,-0.00019762303,-8.5974869e-005
13700123.749958,0.00012763515,0.0001480163
13800127.094552,-3.4899243e-005,0.00018998202
13900130.439145,3.569281e-005,-0.00017189402
14000133.783739,0.00014666859,8.863298e-005
14100137.128332,-3.1362812e-005,-8.0666789e-005
14200140.472926,-0.00010628752,3.8397338e-005
14300143.817519,0.00013798226,2.0019821e-005
14400147.162112,0.00015779604,3.3377786e-005
14500150.506706,-2.5476022e-005,3.8560742e-005
14600153.851299,0.0001463402,4.6986628e-005
14700157.195893,-4.9718412e-005,-2.4310579e-005
14800160.540486,-5.0789626e-005,3.8702568e-005
14900163.88508,-3.0734598e-005,-3.956852e-005
15000167.229673,2.9412426e-005,2.6950389e-005
15100170.574267,-0.00012608156,-4.8252652e-005
15200173.91886,-0.00013085245,0.00015166246
15300177.263454,0.00015170833,-2.2432403e-005
15400180.608047,6.9661575e-005,-9.8275588e-005
15500183.952641,4.6061687e-005,5.0880999e-006
15600187.297234,2.3334887e-005,7.9529316e-005
15700190.641827,8.0688296e-005,1.5025964e-005
15800193.986421,-6.2862011e-005,2.8344334e-007
15900197.331014,-8.7430693e-005,0.00018190072
16000200.675608,6.4551299e-005,-1.8175489e-005
16100204.020201,-5.2295814e-005,1.4336958e-005
16200207.364795,-2.9504814e-005,-8.6043321e-005
16300210.709388,6.6173881e-005,8.3696214e-005
16400214.053982,0.00011236005,-4.5094192e-005
16500217.398575,2.6008298e-005,-0.00012078523
16600220.743169,0.00010031116,-2.502968e-005
16700224.087762,1.136369e-005,-1.2271245e-005
16800227.432356,4.0763378e-005,-0.00010783663
16900230.776949,-5.5125074e-005,-4.8738471e-005
17000234.121543,5.1975501e-005,0.00018713243
17100237.466136,-6.5585176e-005,0.00014238482
17200240.810729,-8.9209439e-005,-5.2771367e-005
17300244.155323,1.197186e-006,-4.408765e-005
17400247.499916,5.1765084e-005,-0.00010939562
17500250.84451,3.2383767e-005,5.9378435e-005
17600254.189103,6.5398453e-005,7.8103316e-005
17700257.533697,-9.8496181e-005,-0.00011758049
17800260.87829,-6.7062574e-005,-7.2385064e-006
17900264.222884,5.2236621e-005,-1.9473622e-005
18000267.567477,-5.6577504e-005,1.0535135e-005
18100270.912071,7.4289062e-005,1.8382574e-005
18200274.256664,-4.1657557e-005,-2.1422111e-005
18300277.601258,5.4304528e-006,1.7035532e-005
18400280.945851,0.00013888947,-9.3774279e-006
18500284.290444,3.082968e-005,6.0104717e-006
18600287.635038,-3.301477e-005,-1.0788593e-005
18700290.979631,7.0003072e-005,1.142846e-005
18800294.324225,0.00016064639,2.9393782e-006
18900297.668818,-9.3128983e-005,0.00011281753
19000301.013412,-1.1940864e-005,-3.4017619e-005
19100304.358005,-4.8568083e-005,-5.2267726e-005
19200307.702599,1.7237902e-005,4.2350977e-005
19300311.047192,-1.3919287e-005,-6.8808433e-005
19400314.391786,8.6002627e-005,3.0260571e-005
19500317.736379,-2.5420108e-005,8.7409448e-005
19600321.080973,-3.9091083e-005,-7.8300502e-005
19700324.425566,5.1164312e-005,7.4285694e-005
19800327.77016,8.9665511e-005,1.0948937e-005
19900331.114753,3.7468337e-005,2.3995774e-005
20000334.459346,-9.9266719e-005,-9.5158903e-005
20100337.80394,-1.3195022e-005,-1.6062657e-007
20200341.148533,-0.00012584067,7.8078236e-005
20300344.493127,-3.1018208e-005,-4.0632003e-005
20400347.83772,1.0291047e-005,1.3615033e-005
20500351.182314,-5.205581e-005,-5.9837537e-005
20600354.526907,-2.310014e-006,6.0595383e-005
20700357.871501,-9.1846887e-005,5.8988611e-005
20800361.216094,-4.3832704e-005,8.7803935e-005
20900364.560688,6.1860652e-007,7.9843827e-005
21000367.905281,-6.2201558e-005,3.6128236e-005
21100371.249875,-3.5187972e-005,7.8896592e-005
21200374.594468,-5.7510442e-005,9.5674122e-006
21300377.939062,-1.5049365e-005,5.149412e-005
21400381.283655,7.7229561e-005,4.4984194e-005
21500384.628248,1.8384133e-005,-9.6202297e-005
21600387.972842,-2.8118448e-006,-4.6672227e-005
21700391.317435,2.1669439e-007,-8.8543111e-006
21800394.662029,4.3324708e-005,1.5081378e-005
21900398.006622,4.1392625e-005,-0.00012279808
22000401.351216,4.1898918e-005,-4.9884988e-005
22100404.695809,-3.2240736e-005,-5.2228697e-005
22200408.040403,1.3732565e-006,5.1982905e-005
22300411.384996,5.0044233e-005,-1.0228269e-005
22400414.72959,-2.064247e-005,-1.4820852e-005
22500418.074183,-2.3846404e-005,-5.5351902e-005
22600421.418777,-5.5152464e-005,-0.00013070476
22700424.76337,2.8926163e-006,3.8205741e-005
22800428.107963,-2.1259832e-005,7.4203424e-005
22900431.452557,6.8935806e-005,7.1199953e-005
23000434.79715,-0.00010561087,8.0817968e-005
23100438.141744,-5.7521383e-006,-2.5435256e-005
23200441.486337,-5.7773959e-005,8.4827028e-005
23300444.830931,6.0884115e-005,-1.5995485e-005
23400448.175524,-3.0102796e-005,7.1590068e-005
23500451.520118,-1.9959401e-005,-8.1014558e-005
23600454.864711,1.3502113e-005,7.2573221e-007
23700458.209305,-4.6685203e-005,-2.3027376e-005
23800461.553898,-1.5412934e-005,-5.4584892e-005
23900464.898492,6.1374245e-005,-9.2619324e-005
24000468.243085,-8.0966194e-005,-2.5129017e-005
24100471.587679,5.496684e-005,-1.6738724e-005
24200474.932272,3.7767346e-005,-4.3413842e-005
24300478.276865,-6.5084547e-005,-4.1414722e-005
24400481.621459,4.0832256e-005,-6.3379826e-005
24500484.966052,-4.7857378e-005,5.7807134e-005
24600488.310646,-6.3673957e-005,3.928845e-005
24700491.655239,-2.4675743e-005,3.142744e-005
24800494.999833,-4.5987981e-005,1.7089014e-005
24900498.344426,-3.3412965e-005,-6.5164359e-006
25000501.68902,-4.5301971e-005,6.4418506e-005
25100505.033613,1.0899448e-005,1.6248596e-005
25200508.378207,3.8405724e-006,-7.738408e-005
25300511.7228,-6.517773e-005,-7.4025476e-005
25400515.067394,2.3771398e-005,2.5585419e-005
25500518.411987,9.561184e-006,6.4202293e-005
25600521.75658,3.4552042e-005,-2.2355132e-005
25700525.101174,-0.00011277592,-4.3939049e-006
25800528.445767,2.1508558e-005,-3.8256581e-005
25900531.790361,-4.5094414e-005,3.180862e-005
26000535.134954,-4.6246991e-005,-3.9887414e-005
26100538.479548,7.8621042e-006,4.9921531e-005
26200541.824141,7.7990489e-006,-6.6383636e-006
26300545.168735,4.8985061e-005,1.5557654e-005
26400548.513328,-4.8808834e-005,4.636298e-005
26500551.857922,6.9724103e-007,-2.8743782e-005
26600555.202515,2.8955857e-005,4.2075084e-005
26700558.547109,-5.7542027e-005,-7.7285276e-006
26800561.891702,-1.6595995e-005,3.3104689e-006
26900565.236296,2.7580007e-005,-1.0858236e-005
27000568.580889,3.464731e-005,1.2855785e-005
27100571.925482,2.7502168e-005,-3.8371698e-005
27200575.270076,-2.7825097e-005,4.3373551e-005
27300578.614669,4.8435479e-005,2.0746003e-005
27400581.959263,2.3954695e-005,4.0110999e-006
27500585.303856,-8.4160729e-007,-8.0342936e-005
27600588.64845,-6.3351462e-007,2.1603051e-005
27700591.993043,-5.1137489e-005,3.9162231e-005
27800595.337637,1.949433e-005,-6.3089588e-005
27900598.68223,5.1148992e-005,1.4184342e-005
28000602.026824,-3.8168921e-005,-2.9029796e-005
28100605.371417,-2.7884753e-005,-1.5662577e-005
28200608.716011,5.5173256e-005,1.5759764e-005
28300612.060604,2.6260905e-005,-1.4042362e-005
28400615.405197,-1.9233397e-005,2.0183657e-005
28500618.749791,9.8012624e-006,4.583089e-005
28600622.094384,5.0333278e-005,3.9227296e-005
28700625.438978,-4.4445718e-005,4.7412774e-005
28800628.783571,3.3082604e-006,1.8668197e-005
28900632.128165,1.1279017e-005,-3.8747512e-006
29000635.472758,1.7346498e-005,1.8053141e-005
29100638.817352,-7.1533163e-006,-1.6571029e-006
29200642.161945,-8.2115757e-006,-3.1567804e-005
29300645.506539,-8.6182454e-006,-5.4922846e-005
29400648.851132,1.7786506e-005,2.5659188e-005
29500652.195726,-1.1550249e-005,1.5197164e-005
29600655.540319,5.4774016e-005,-3.4350465e-005
29700658.884913,2.3905757e-005,2.1006501e-005
29800662.229506,-2.1692629e-005,-2.5894138e-005
29900665.574099,5.7058583e-006,-2.7691816e-005
30000668.918693,-1.2071679e-005,6.2349403e-007
30100672.263286,-7.3833048e-006,2.1352935e-005
30200675.60788,-2.0429135e-005,2.7039096e-005
30300678.952473,6.272857e-005,-1.8293482e-005
30400682.297067,6.743383e-005,1.4439516e-005
30500685.64166,1.8957939e-005,9.8339406e-006
30600688.986254,-2.9876879e-005,-9.8113605e-006
30700692.330847,1.4035136e-005,-2.1802296e-005
30800695.675441,1.4691953e-005,2.6801667e-006
30900699.020034,7.0751082e-007,1.6915545e-006
31000702.364628,-2.3663913e-005,-1.6435943e-005
31100705.709221,-3.6002246e-005,-8.4907942e-006
31200709.053815,2.845422e-005,4.0149498e-006
31300712.398408,1.6730881e-005,3.454569e-005
31400715.743001,6.1219725e-006,-1.853323e-005
31500719.087595,-2.3801402e-005,-1.6304572e-005
31600722.432188,-4.275201e-005,-2.5790743e-005
31700725.776782,-1.8849965e-005,5.5181197e-005
31800729.121375,6.4138883e-005,-2.4320574e-005
31900732.465969,-7.0702367e-007,1.699279e-005
32000735.810562,3.3875178e-005,2.1078775e-005
32100739.155156,2.8518391e-005,4.8347662e-005
32200742.499749,-2.5482682e-006,4.8724469e-005
32300745.844343,-5.3733685e-005,1.2397611e-005
32400749.188936,-3.4747711e-005,3.6479101e-005
32500752.53353,1.8541255e-005,-2.6389127e-005
32600755.878123,1.4445602e-005,2.8058683e-005
32700759.222716,-7.91207e-006,4.2924967e-005
32800762.56731,-1.3643494e-005,3.2191743e-005
32900765.911903,5.9718736e-006,1.8799525e-005
33000769.256497,1.5973474e-005,1.5696382e-005
33100772.60109,3.2131982e-005,1.5026473e-005
33200775.945684,-3.4134373e-006,1.6722959e-005
33300779.290277,-2.0261463e-005,2.3625978e-005
33400782.634871,1.8165547e-005,1.2324675e-005
33500785.979464,-2.7194366e-005,3.4754463e-005
33600789.324058,2.2054255e-005,-1.5977646e-005
33700792.668651,-3.3345725e-005,-4.206127e-006
33800796.013245,-7.1863597e-006,2.2504324e-005
33900799.357838,-1.4402652e-005,1.2062081e-005
34000802.702432,1.0419504e-005,-1.2834897e-005
34100806.047025,-2.5814787e-005,1.0383109e-006
34200809.391618,6.2749796e-006,-2.0050084e-005
34300812.736212,8.432974e-006,7.3849465e-006
34400816.080805,2.13168e-005,-9.4410698e-006
34500819.425399,-1.0211911e-005,-1.0790504e-005
34600822.769992,1.1876528e-005,-1.5273245e-005
34700826.114586,-5.9276276e-006,-1.4890918e-005
34800829.459179,3.8873109e-006,-3.7245216e-005
34900832.803773,3.8027527e-005,1.6008373e-005
35000836.148366,8.3769082e-006,5.1930925e-005
35100839.49296,7.7382929e-006,3.2979475e-005
35200842.837553,-7.6608758e-006,-1.6635735e-005
35300846.182147,-4.5620736e-006,-4.1731451e-005
35400849.52674,-2.2014717e-006,-3.1656473e-005
35500852.871333,-1.4420355e-005,7.9020901e-007
35600856.215927,-9.9762947e-006,9.8271448e-006
35700859.56052,-2.2585678e-005,1.858283e-005
35800862.905114,-2.2163093e-005,2.3179215e-005
35900866.249707,1.2643128e-005,-4.9730324e-006
36000869.594301,-2.2690843e-005,-1.4070221e-005
36100872.938894,-2.5821715e-005,8.5467909e-006
36200876.283488,1.9469222e-005,-2.3108735e-006
36300879.628081,-4.9326591e-006,-2.9550078e-005
36400882.972675,1.1040431e-005,4.547312e-005
36500886.317268,8.1554908e-006,-4.216452e-005
36600889.661862,-2.0058398e-005,4.1964022e-006
36700893.006455,4.8774022e-005,-4.944357e-006
36800896.351049,-1.5579695e-005,-3.1152107e-005
36900899.695642,-3.6699617e-005,5.9902239e-005
37000903.040235,1.4030842e-005,2.3263165e-005
37100906.384829,-1.9667705e-005,-9.2795572e-006
37200909.729422,2.3372557e-005,3.3468198e-006
37300913.074016,9.254125e-006,-2.372314e-005
37400916.418609,-1.004778e-005,-1.3246573e-005
37500919.763203,1.0376001e-005,-5.1168327e-006
37600923.107796,2.7288605e-005,1.1759753e-005
37700926.45239,-1.6139802e-005,3.782436e-005
37800929.796983,-4.5371206e-007,1.3953781e-005
37900933.141577,-7.7038912e-006,-7.4467739e-006
38000936.48617,1.1570469e-006,1.3483431e-005
38100939.830764,-1.7609254e-005,1.0244674e-005
38200943.175357,1.3976657e-005,2.0229963e-005
38300946.51995,-2.9317793e-005,1.7982198e-005
38400949.864544,-1.6723663e-005,-3.9761994e-006
38500953.209137,-1.2302864e-005,2.0783182e-005
38600956.553731,1.269627e-005,1.3366821e-005
38700959.898324,-8.7278403e-007,-6.1456253e-006
38800963.242918,-3.9117553e-005,1.9475212e-005
38900966.587511,1.4718787e-005,-3.9743518e-006
39000969.932105,2.7529528e-005,1.4046639e-005
39100973.276698,1.7900691e-005,2.3845467e-005
39200976.621292,-2.8344648e-005,-7.0996566e-006
39300979.965885,-1.2023977e-006,1.538279e-005
39400983.310479,-2.0785051e-006,7.5484127e-006
39500986.655072,1.8372659e-005,9.5396072e-006
39600989.999666,-1.205883e-005,4.8869435e-007
39700993.344259,-7.6810011e-006,5.9649869e-006
39800996.688852,-2.0052727e-005,-2.8855836e-006
39901000.033446,9.8472383e-006,1.3782561e-005
40001003.378039,-1.2983513e-005,3.5657924e-006
40101006.722633,3.1352145e-005,5.5941819e-006
40201010.067226,-2.3608674e-005,1.7292074e-005
40301013.41182,2.3380664e-005,1.8589406e-005
40401016.756413,1.655194e-005,2.5986164e-005
40501020.101007,-5.641587e-006,-4.2378164e-005
40601023.4456,1.207586e-005,7.0589572e-006
40701026.790194,1.9613479e-005,2.0014743e-006
40801030.134787,-7.8416542e-006,-8.7270255e-006
40901033.479381,7.5041385e-006,1.2583635e-005
41001036.823974,-2.9285569e-005,-1.7769687e-005
41101040.168568,7.9880347e-006,-1.8506722e-005
41201043.513161,9.8276978e-006,3.1026746e-005
41301046.857754,2.4698245e-006,1.2862938e-005
41401050.202348,-9.3262315e-006,2.9515228e-005
41501053.546941,-7.0145802e-006,1.2032179e-006
41601056.891535,1.453863e-005,-2.8999748e-005
41701060.236128,1.1614582e-005,-7.8033218e-006
41801063.580722,3.0052974e-005,-1.3782414e-005
41901066.925315,-1.894922e-005,-3.0967615e-006
42001070.269909,1.8580651e-005,-2.7075355e-006
42101073.614502,-1.0212751e-005,1.1624091e-005
42201076.959096,-2.2988668e-006,9.8451201e-006
42301080.303689,-8.7961359e-007,-1.3775631e-006
42401083.648283,-1.9457122e-005,1.0658516e-005
42501086.992876,1.1878537e-005,-1.7776378e-005
42601090.337469,-1.3544001e-006,5.9302924e-006
42701093.682063,-6.2979775e-006,1.5571577e-005
42801097.026656,5.9042209e-006,1.2565067e-005
42901100.37125,-1.3642575e-005,-9.313615e-006
43001103.715843,-1.1403836e-005,2.8799161e-009
43101107.060437,3.1367032e-005,-1.5638107e-005
43201110.40503,-1.8397308e-005,-9.9678537e-006
43301113.749624,-2.0758785e-005,1.2790813e-005
43401117.094217,5.4843586e-006,-2.0394225e-005
43501120.438811,2.6602351e-005,1.7465047e-005
43601123.783404,-6.3452312e-006,-4.4917323e-007
43701127.127998,1.9246916e-005,-2.0739506e-005
43801130.472591,1.9655572e-005,-2.204562e-005
43901133.817185,-1.6578819e-005,2.2368879e-006
44001137.161778,2.1677612e-005,9.8808396e-006
44101140.506371,5.7378193e-006,3.9591309e-006
44201143.850965,2.5389485e-005,9.6477797e-006
44301147.195558,-2.63006e-005,-2.8075972e-005
44401150.540152,1.479875e-005,-2.5066986e-006
44501153.884745,4.2447309e-006,5.0125527e-006
44601157.229339,-7.4731938e-006,-6.9496191e-006
44701160.573932,9.1249203e-006,1.1153034e-005
44801163.918526,-9.0406247e-006,6.381141e-007
44901167.263119,4.2499905e-006,9.427743e-006
45001170.607713,-1.026364e-005,-3.0874122e-005
45101173.952306,-1.0377934e-006,-2.2510023e-005
45201177.2969,1.0025147e-005,-2.0728647e-005
45301180.641493,9.9643994e-006,-4.3945052e-005
45401183.986086,-2.0935127e-005,2.1985093e-006
45501187.33068,7.8000385e-006,-2.1974256e-005
45601190.675273,2.0248679e-005,-1.1859381e-005
45701194.019867,2.5292516e-006,3.3582385e-006
45801197.36446,1.0859531e-005,-1.0906784e-005
45901200.709054,-1.1846488e-005,-1.3537108e-005
46001204.053647,1.875049e-005,-6.5452527e-006
46101207.398241,-4.6134155e-006,-3.3007143e-006
46201210.742834,-1.6673854e-006,1.1737068e-005
46301214.087428,-2.2438635e-006,-2.9200596e-006
46401217.432021,1.8779852e-005,1.439063e-005
46501220.776615,-4.8050792e-006,-5.4626971e-006
46601224.121208,1.6062502e-005,9.2990831e-006
46701227.465802,-9.9922854e-006,-1.9398067e-006
46801230.810395,-6.2293198e-006,1.1335784e-005
46901234.154988,7.2543294e-006,9.1683432e-006
47001237.499582,-1.3305526e-005,-1.3134128e-005
47101240.844175,-1.1641574e-005,-6.1566848e-006
47201244.188769,1.89694e-005,7.3626293e-006
47301247.533362,-7.7871988e-007,-1.2607286e-006
47401250.877956,1.6143171e-005,-6.240665e-007
47501254.222549,3.6864724e-006,3.506977e-005
47601257.567143,-3.4913664e-005,-2.808108e-005
47701260.911736,-5.6186045e-006,1.4498704e-005
47801264.25633,-5.0593571e-006,-8.3281875e-006
47901267.600923,-2.1924539e-005,-1.3274271e-005
48001270.945517,1.3966599e-005,1.1558403e-005
48101274.29011,-1.8903336e-005,7.7961004e-006
48201277.634704,1.1603176e-005,-2.3890036e-005
48301280.979297,1.5099863e-005,-2.534214e-005
48401284.32389,1.3032679e-006,-8.9624236e-006
48501287.668484,-1.5162535e-005,2.7040442e-006
48601291.013077,1.4728927e-005,-7.2133815e-007
48701294.357671,-1.1898769e-005,-3.2020143e-005
48801297.702264,-9.202422e-006,-6.3843686e-006
48901301.046858,3.1459167e-005,-5.0222193e-006
49001304.391451,-1.1425183e-005,-1.9600424e-005
49101307.736045,7.4613545e-006,4.219832e-007
49201311.080638,5.1549923e-006,4.8976558e-006
49301314.425232,1.8216087e-005,-4.0518075e-006
49401317.769825,-7.0564465e-006,1.6612668e-005
49501321.114419,-2.2063718e-005,5.8201263e-006
49601324.459012,2.6173173e-006,-2.9655987e-006
49701327.803605,-7.1072809e-006,-1.2044861e-005
49801331.148199,1.4427571e-005,-6.7858691e-006
49901334.492792,3.8523467e-006,-7.0343867e-007
50001337.837386,-1.4206515e-005,-2.7995788e-005
50101341.181979,1.3785616e-006,-5.3768199e-006
50201344.526573,3.4611141e-006,4.3083728e-006
50301347.871166,6.8540048e-006,-9.7207467e-006
50401351.21576,-1.8462526e-006,1.643647e-005
50501354.560353,-7.9307847e-006,1.4885175e-005
50601357.904947,9.8565133e-006,8.6464152e-006
50701361.24954,-5.5072669e-006,1.3634795e-005
50801364.594134,4.8778688e-006,-4.0284849e-006
50901367.938727,-9.7520733e-006,-3.8944913e-006
51001371.283321,-3.8652557e-005,-1.4155653e-005
51101374.627914,6.6065638e-007,-1.47092e-005
51201377.972507,1.784057e-005,-1.1488197e-005
51301381.317101,-2.1559425e-005,2.9260452e-006
51401384.661694,8.9136138e-006,-6.7687947e-006
51501388.006288,9.0920339e-006,9.383888e-006
