!CSV A.01.01
!Agilent Technologies,N5227A,US51270345,A.09.80.20
!Agilent N5227A: A.09.80.20
!Date: Monday, November 26, 2018 16:00:10
!Source: Standard

BEGIN CH1_DATA
Freq(Hz),S22(REAL),S22(IMAG)
10000000,0.8294456,-0.39201108
10100003.344593,0.82867736,-0.39401993
10200006.689187,0.82725626,-0.39586127
10300010.03378,0.82575828,-0.39813784
10400013.378374,0.8248868,-0.40052384
10500016.722967,0.82345158,-0.40279621
10600020.067561,0.82261109,-0.40480712
10700023.412154,0.82133836,-0.40667483
10800026.756748,0.81985795,-0.40912625
10900030.101341,0.8186779,-0.4112516
11000033.445935,0.81778902,-0.41327396
11100036.790528,0.81660211,-0.41547903
11200040.135122,0.81562412,-0.41729063
11300043.479715,0.81447577,-0.41963813
11400046.824309,0.81350869,-0.42152688
11500050.168902,0.81160748,-0.42352411
11600053.513495,0.81068724,-0.4256638
11700056.858089,0.80933684,-0.42781985
11800060.202682,0.80813462,-0.42995703
11900063.547276,0.8073501,-0.43199283
12000066.891869,0.80575234,-0.43430644
12100070.236463,0.80497849,-0.43590549
12200073.581056,0.80375725,-0.43801779
12300076.92565,0.80265713,-0.44027367
12400080.270243,0.8013764,-0.44229832
12500083.614837,0.8003087,-0.44400507
12600086.95943,0.79897273,-0.44631246
12700090.304024,0.79784691,-0.44846356
12800093.648617,0.79664004,-0.45046026
12900096.99321,0.79507834,-0.45282823
13000100.337804,0.79404962,-0.45438737
13100103.682397,0.79304326,-0.45667878
13200107.026991,0.79152495,-0.45869011
13300110.371584,0.78987736,-0.46073431
13400113.716178,0.78895688,-0.46275476
13500117.060771,0.78757679,-0.46458191
13600120.405365,0.7865479,-0.46662861
13700123.749958,0.78526449,-0.46845037
13800127.094552,0.78400052,-0.47060081
13900130.439145,0.78257912,-0.47286996
14000133.783739,0.78118831,-0.47466877
14100137.128332,0.77946615,-0.47660324
14200140.472926,0.77848446,-0.47869137
14300143.817519,0.77688211,-0.48054883
14400147.162112,0.77532947,-0.48244458
14500150.506706,0.7739464,-0.48482534
14600153.851299,0.77298665,-0.48655012
14700157.195893,0.77113646,-0.48865381
14800160.540486,0.76990467,-0.4907048
14900163.88508,0.76855415,-0.49260941
15000167.229673,0.76695865,-0.49426258
15100170.574267,0.7655344,-0.49647593
15200173.91886,0.76409602,-0.49828273
15300177.263454,0.76252097,-0.50041497
15400180.608047,0.76085877,-0.50247979
15500183.952641,0.75903863,-0.50467247
15600187.297234,0.7576527,-0.50674486
15700190.641827,0.75583804,-0.50883794
15800193.986421,0.75437188,-0.51092678
15900197.331014,0.75259101,-0.51261687
16000200.675608,0.75136775,-0.51502532
16100204.020201,0.74940598,-0.51671833
16200207.364795,0.74768114,-0.51890588
16300210.709388,0.74593526,-0.52096283
16400214.053982,0.74462754,-0.52289808
16500217.398575,0.74314207,-0.52483159
16600220.743169,0.74122316,-0.52692461
16700224.087762,0.73942226,-0.52885532
16800227.432356,0.73808646,-0.53067034
16900230.776949,0.73621058,-0.53277695
17000234.121543,0.73490715,-0.53460532
17100237.466136,0.73298836,-0.53655756
17200240.810729,0.73169541,-0.53880847
17300244.155323,0.72995239,-0.54071307
17400247.499916,0.72845423,-0.54237747
17500250.84451,0.72654486,-0.54431993
17600254.189103,0.72495723,-0.54596359
17700257.533697,0.72332132,-0.54816109
17800260.87829,0.72173357,-0.55000746
17900264.222884,0.72002125,-0.5519045
18000267.567477,0.71849227,-0.55385196
18100270.912071,0.71687746,-0.55557346
18200274.256664,0.71529859,-0.55757445
18300277.601258,0.71367002,-0.55919379
18400280.945851,0.71194112,-0.5612275
18500284.290444,0.71032512,-0.56314021
18600287.635038,0.70871574,-0.56495416
18700290.979631,0.70718127,-0.5666796
18800294.324225,0.70539629,-0.56846619
18900297.668818,0.70354533,-0.57044071
19000301.013412,0.70183963,-0.57249737
19100304.358005,0.70002651,-0.57398647
19200307.702599,0.69831455,-0.57615411
19300311.047192,0.69624197,-0.57798368
19400314.391786,0.69464701,-0.58011609
19500317.736379,0.69284165,-0.58165413
19600321.080973,0.69113678,-0.58369428
19700324.425566,0.68939245,-0.58551878
19800327.77016,0.68756539,-0.58744508
19900331.114753,0.68582308,-0.58925724
20000334.459346,0.68397617,-0.5911175
20100337.80394,0.68214911,-0.59286666
20200341.148533,0.68041009,-0.59456104
20300344.493127,0.678532,-0.59632593
20400347.83772,0.67683673,-0.59823024
20500351.182314,0.67500013,-0.60022306
20600354.526907,0.67311847,-0.60176313
20700357.871501,0.67137897,-0.60364544
20800361.216094,0.6695649,-0.60539722
20900364.560688,0.66763753,-0.60726511
21000367.905281,0.66597086,-0.60890615
21100371.249875,0.66411477,-0.61087006
21200374.594468,0.66227871,-0.61269063
21300377.939062,0.66048652,-0.61401904
21400381.283655,0.65865803,-0.61595982
21500384.628248,0.65687555,-0.61760539
21600387.972842,0.65504026,-0.61935014
21700391.317435,0.65346122,-0.62096107
21800394.662029,0.65154487,-0.62269199
21900398.006622,0.64967871,-0.62452841
22000401.351216,0.64782417,-0.6264298
22100404.695809,0.6459614,-0.62793934
22200408.040403,0.64413744,-0.62968248
22300411.384996,0.64229774,-0.63139689
22400414.72959,0.64029849,-0.63301885
22500418.074183,0.6385445,-0.63476932
22600421.418777,0.63650781,-0.63645506
22700424.76337,0.63468492,-0.63818139
22800428.107963,0.63257593,-0.63995874
22900431.452557,0.63069904,-0.64176327
23000434.79715,0.62858623,-0.64340514
23100438.141744,0.62669933,-0.64524621
23200441.486337,0.62454349,-0.64691532
23300444.830931,0.62263125,-0.64871854
23400448.175524,0.62047583,-0.65037358
23500451.520118,0.61868531,-0.65201753
23600454.864711,0.61660224,-0.65386498
23700458.209305,0.61456227,-0.65557355
23800461.553898,0.61253744,-0.65715641
23900464.898492,0.61040711,-0.65898573
24000468.243085,0.6084941,-0.66077363
24100471.587679,0.60651928,-0.66236675
24200474.932272,0.60422176,-0.66408366
24300478.276865,0.60227704,-0.66560584
24400481.621459,0.6001181,-0.667274
24500484.966052,0.59817976,-0.66904974
24600488.310646,0.59609461,-0.67059726
24700491.655239,0.59404343,-0.67241299
24800494.999833,0.59201944,-0.67392701
24900498.344426,0.59010273,-0.67556602
25000501.68902,0.58776337,-0.67723453
25100505.033613,0.58585387,-0.67887026
25200508.378207,0.58374411,-0.68041563
25300511.7228,0.58169913,-0.68208247
25400515.067394,0.57968193,-0.68350965
25500518.411987,0.57739443,-0.68519795
25600521.75658,0.57541281,-0.68663973
25700525.101174,0.57316715,-0.6882239
25800528.445767,0.57127225,-0.68990839
25900531.790361,0.5691331,-0.69139165
26000535.134954,0.56703836,-0.69310904
26100538.479548,0.56501496,-0.69461471
26200541.824141,0.56261802,-0.69624776
26300545.168735,0.56068963,-0.6977964
26400548.513328,0.55852973,-0.69941789
26500551.857922,0.55640131,-0.70100385
26600555.202515,0.55418026,-0.7025879
26700558.547109,0.55199414,-0.70411998
26800561.891702,0.54973692,-0.70590782
26900565.236296,0.54753345,-0.70746368
27000568.580889,0.54537868,-0.70905149
27100571.925482,0.54307717,-0.71062672
27200575.270076,0.5409593,-0.71218133
27300578.614669,0.53876275,-0.71383435
27400581.959263,0.53644848,-0.71540451
27500585.303856,0.53425276,-0.71697402
27600588.64845,0.53198951,-0.71831322
27700591.993043,0.52986717,-0.72002375
27800595.337637,0.52763206,-0.72150123
27900598.68223,0.52537364,-0.72307259
28000602.026824,0.52313703,-0.72463548
28100605.371417,0.52081257,-0.72598118
28200608.716011,0.51869768,-0.72760046
28300612.060604,0.51631564,-0.72905242
28400615.405197,0.51401246,-0.73059058
28500618.749791,0.51184708,-0.73202717
28600622.094384,0.50953311,-0.73351848
28700625.438978,0.50722438,-0.73506182
28800628.783571,0.50498879,-0.73646027
28900632.128165,0.50279534,-0.73799014
29000635.472758,0.50041848,-0.73939645
29100638.817352,0.49817365,-0.74088901
29200642.161945,0.49590284,-0.74232322
29300645.506539,0.49362278,-0.74363625
29400648.851132,0.49124348,-0.74502087
29500652.195726,0.48906597,-0.74657857
29600655.540319,0.48671445,-0.74800974
29700658.884913,0.48442614,-0.74928635
29800662.229506,0.48215595,-0.75072366
29900665.574099,0.47979304,-0.75212801
30000668.918693,0.47722137,-0.75349522
30100672.263286,0.474794,-0.75493699
30200675.60788,0.47247651,-0.75653487
30300678.952473,0.47017065,-0.75798297
30400682.297067,0.46766749,-0.75940019
30500685.64166,0.46532705,-0.76089561
30600688.986254,0.46293098,-0.76227748
30700692.330847,0.46051449,-0.76367521
30800695.675441,0.45812353,-0.76512927
30900699.020034,0.45571899,-0.76654172
31000702.364628,0.45342112,-0.76798165
31100705.709221,0.45097464,-0.7693662
31200709.053815,0.44856066,-0.77076805
31300712.398408,0.44608766,-0.77227062
31400715.743001,0.44371149,-0.7735467
31500719.087595,0.44124827,-0.77500677
31600722.432188,0.43883497,-0.77620399
31700725.776782,0.43636891,-0.7776354
31800729.121375,0.43390235,-0.77897596
31900732.465969,0.43148246,-0.78034461
32000735.810562,0.42898074,-0.78167689
32100739.155156,0.4265646,-0.7831254
32200742.499749,0.42412707,-0.78438419
32300745.844343,0.42169338,-0.78561187
32400749.188936,0.41922587,-0.78698319
32500752.53353,0.41670001,-0.78836787
32600755.878123,0.41426364,-0.78962451
32700759.222716,0.41177329,-0.79100257
32800762.56731,0.40927264,-0.79227692
32900765.911903,0.40686849,-0.79353678
33000769.256497,0.40431687,-0.7949065
33100772.60109,0.40183142,-0.79608858
33200775.945684,0.39936161,-0.79741961
33300779.290277,0.39676556,-0.79862654
33400782.634871,0.39427635,-0.79985988
33500785.979464,0.39182839,-0.80106252
33600789.324058,0.38928321,-0.80229336
33700792.668651,0.38678521,-0.80355394
33800796.013245,0.38423002,-0.80481493
33900799.357838,0.38168952,-0.8059656
34000802.702432,0.37924004,-0.80725884
34100806.047025,0.37659714,-0.80834728
34200809.391618,0.37408581,-0.80964017
34300812.736212,0.37161478,-0.81080115
34400816.080805,0.36908728,-0.81200284
34500819.425399,0.36653325,-0.81312257
34600822.769992,0.36399096,-0.81427836
34700826.114586,0.36139634,-0.81542283
34800829.459179,0.35889521,-0.81664062
34900832.803773,0.35630375,-0.81776643
35000836.148366,0.35376203,-0.81886148
35100839.49296,0.3511391,-0.81991225
35200842.837553,0.34853286,-0.82103306
35300846.182147,0.34595084,-0.82220334
35400849.52674,0.34345162,-0.82332373
35500852.871333,0.34085259,-0.82438344
35600856.215927,0.33829224,-0.82553142
35700859.56052,0.3357341,-0.82658231
35800862.905114,0.33308238,-0.8276509
35900866.249707,0.33048534,-0.82867193
36000869.594301,0.32793921,-0.82970893
36100872.938894,0.32530624,-0.83080894
36200876.283488,0.32270184,-0.83194041
36300879.628081,0.32010975,-0.83292252
36400882.972675,0.31748897,-0.83384347
36500886.317268,0.31489688,-0.83494288
36600889.661862,0.31223077,-0.83597618
36700893.006455,0.30959681,-0.8369934
36800896.351049,0.30700979,-0.83799148
36900899.695642,0.30437589,-0.83893055
37000903.040235,0.30172539,-0.83982623
37100906.384829,0.29909378,-0.84091818
37200909.729422,0.29649991,-0.84191203
37300913.074016,0.29384255,-0.84284723
37400916.418609,0.2911585,-0.84372497
37500919.763203,0.28853622,-0.84475237
37600923.107796,0.28587976,-0.84568179
37700926.45239,0.28319034,-0.84658164
37800929.796983,0.28056198,-0.84749746
37900933.141577,0.27794433,-0.84843302
38000936.48617,0.27520859,-0.84931242
38100939.830764,0.27260464,-0.85021776
38200943.175357,0.2699286,-0.85110444
38300946.51995,0.26732749,-0.85201931
38400949.864544,0.26463276,-0.85287726
38500953.209137,0.26194978,-0.85372955
38600956.553731,0.25924823,-0.85456824
38700959.898324,0.2565273,-0.85534602
38800963.242918,0.25388199,-0.85625994
38900966.587511,0.25122565,-0.85703778
39000969.932105,0.2485546,-0.85779291
39100973.276698,0.24584146,-0.85869843
39200976.621292,0.2431502,-0.85943669
39300979.965885,0.2404884,-0.86022693
39400983.310479,0.2378152,-0.86113077
39500986.655072,0.23508567,-0.86185813
39600989.999666,0.23237209,-0.86260706
39700993.344259,0.22971548,-0.86345214
39800996.688852,0.22698213,-0.86415541
39901000.033446,0.2243423,-0.86491215
40001003.378039,0.22160569,-0.8656112
40101006.722633,0.2188389,-0.86643916
40201010.067226,0.21615158,-0.86709058
40301013.41182,0.21349125,-0.86780989
40401016.756413,0.21076913,-0.86854309
40501020.101007,0.20800275,-0.869232
40601023.4456,0.2052923,-0.86993396
40701026.790194,0.20255704,-0.87058717
40801030.134787,0.19982989,-0.87124145
40901033.479381,0.19715524,-0.87189132
41001036.823974,0.19443527,-0.87262011
41101040.168568,0.19167833,-0.87322891
41201043.513161,0.18899351,-0.8737998
41301046.857754,0.18621989,-0.87445688
41401050.202348,0.18352491,-0.87501395
41501053.546941,0.18076916,-0.87574929
41601056.891535,0.17806494,-0.87658536
41701060.236128,0.17521068,-0.87744683
41801063.580722,0.17238119,-0.87831146
41901066.925315,0.16960847,-0.87905651
42001070.269909,0.16684233,-0.87991238
42101073.614502,0.16406883,-0.88080084
42201076.959096,0.16126893,-0.8816781
42301080.303689,0.1584805,-0.88244641
42401083.648283,0.15569782,-0.88327104
42501086.992876,0.15286659,-0.88404411
42601090.337469,0.1500231,-0.8848682
42701093.682063,0.14721011,-0.8855859
42801097.026656,0.14443003,-0.88646835
42901100.37125,0.14159776,-0.88719648
43001103.715843,0.13873363,-0.88796312
43101107.060437,0.13596117,-0.88876194
43201110.40503,0.13305137,-0.88946551
43301113.749624,0.13019295,-0.89028054
43401117.094217,0.12737598,-0.89098996
43501120.438811,0.12449262,-0.89180005
43601123.783404,0.12166782,-0.89239138
43701127.127998,0.11888655,-0.89317471
43801130.472591,0.11601873,-0.89387262
43901133.817185,0.11312142,-0.89455801
44001137.161778,0.11023385,-0.89526385
44101140.506371,0.10738342,-0.8958962
44201143.850965,0.1044554,-0.89659166
44301147.195558,0.10156641,-0.89730066
44401150.540152,0.098721847,-0.89793211
44501153.884745,0.095813587,-0.89857525
44601157.229339,0.092997372,-0.8992244
44701160.573932,0.090117007,-0.89981455
44801163.918526,0.087198302,-0.90045613
44901167.263119,0.08431524,-0.90112591
45001170.607713,0.081423365,-0.90177232
45101173.952306,0.078522034,-0.902367
45201177.2969,0.075579345,-0.90306771
45301180.641493,0.072689839,-0.9035309
45401183.986086,0.069727652,-0.90415329
45501187.33068,0.06683211,-0.90471774
45601190.675273,0.063907214,-0.90525448
45701194.019867,0.061000727,-0.90590894
45801197.36446,0.058041293,-0.90639895
45901200.709054,0.055063624,-0.90692973
46001204.053647,0.052136526,-0.90750819
46101207.398241,0.0492029,-0.90807283
46201210.742834,0.0462793,-0.90861332
46301214.087428,0.043367218,-0.90913039
46401217.432021,0.040357769,-0.90956408
46501220.776615,0.037441097,-0.91018569
46601224.121208,0.034441758,-0.91066384
46701227.465802,0.031477567,-0.91117668
46801230.810395,0.028527658,-0.91162407
46901234.154988,0.025528476,-0.91206264
47001237.499582,0.02250533,-0.91255802
47101240.844175,0.019598231,-0.91303933
47201244.188769,0.016598934,-0.91352755
47301247.533362,0.013606936,-0.91394633
47401250.877956,0.010584842,-0.91426259
47501254.222549,0.007617245,-0.91476721
47601257.567143,0.0045736684,-0.91514426
47701260.911736,0.0016780599,-0.91556913
47801264.25633,-0.0013571674,-0.91597122
47901267.600923,-0.0043570506,-0.91641653
48001270.945517,-0.0073226448,-0.91679609
48101274.29011,-0.010397234,-0.91719967
48201277.634704,-0.013415264,-0.91752476
48301280.979297,-0.016411368,-0.91785789
48401284.32389,-0.01945754,-0.91826242
48501287.668484,-0.022457995,-0.91860157
48601291.013077,-0.025536343,-0.91891152
48701294.357671,-0.028572641,-0.91920638
48801297.702264,-0.031640407,-0.91956961
48901301.046858,-0.034608372,-0.91976672
49001304.391451,-0.037703801,-0.92012703
49101307.736045,-0.040753353,-0.92040032
49201311.080638,-0.043727793,-0.92073733
49301314.425232,-0.046790168,-0.92097986
49401317.769825,-0.049893025,-0.92129946
49501321.114419,-0.052918572,-0.92156661
49601324.459012,-0.05600886,-0.92182297
49701327.803605,-0.059051227,-0.92201608
49801331.148199,-0.062124498,-0.92228717
49901334.492792,-0.065268442,-0.92247421
50001337.837386,-0.068264075,-0.92273992
50101341.181979,-0.071395144,-0.92289585
50201344.526573,-0.074484102,-0.92313695
50301347.871166,-0.077498645,-0.92325312
50401351.21576,-0.080644108,-0.92348009
50501354.560353,-0.083681881,-0.9236595
50601357.904947,-0.086764798,-0.92385757
50701361.24954,-0.089899562,-0.92403144
50801364.594134,-0.092982166,-0.92414504
50901367.938727,-0.096085206,-0.92424309
51001371.283321,-0.099174485,-0.92438811
51101374.627914,-0.10229228,-0.92452377
51201377.972507,-0.10535473,-0.92466742
51301381.317101,-0.10847857,-0.92473638
51401384.661694,-0.1116435,-0.92491174
51501388.006288,-0.11471984,-0.92501318
51601391.350881,-0.1178057,-0.92508692
51701394.695475,-0.1209433,-0.92517579
51801398.040068,-0.12408899,-0.92519349
51901401.384662,-0.12718798,-0.92527181
52001404.729255,-0.13030405,-0.92535067
52101408.073849,-0.13343585,-0.92542768
52201411.418442,-0.13657072,-0.92538542
52301414.763036,-0.1397195,-0.92540842
52401418.107629,-0.14284138,-0.92543083
52501421.452222,-0.14595862,-0.92541814
52601424.796816,-0.14914358,-0.92544341
52701428.141409,-0.15228795,-0.92544943
52801431.486003,-0.15538153,-0.92544663
52901434.830596,-0.15855163,-0.92541492
53001438.17519,-0.13978626,-0.90400749
53101441.519783,-0.1428456,-0.90359944
53201444.864377,-0.14580381,-0.90338427
53301448.20897,-0.14886217,-0.90286624
53401451.553564,-0.1518684,-0.90259272
53501454.898157,-0.1548544,-0.90221775
53601458.242751,-0.15781689,-0.90169376
53701461.587344,-0.16078667,-0.90122706
53801464.931938,-0.16379239,-0.90076548
53901468.276531,-0.16674255,-0.90050322
54001471.621124,-0.16966857,-0.8999896
54101474.965718,-0.17273532,-0.89958203
54201478.310311,-0.17580892,-0.89908063
54301481.654905,-0.17875703,-0.898601
54401484.999498,-0.18167092,-0.89806217
54501488.344092,-0.18456292,-0.8975752
54601491.688685,-0.18748258,-0.89695251
54701495.033279,-0.19051598,-0.89645076
54801498.377872,-0.193602,-0.89604884
54901501.722466,-0.19656655,-0.89536333
55001505.067059,-0.19953425,-0.89481115
55101508.411653,-0.20240794,-0.89423925
55201511.756246,-0.20549364,-0.89389926
55301515.100839,-0.20838304,-0.89314121
55401518.445433,-0.21132968,-0.8926782
55501521.790026,-0.21433295,-0.89198083
55601525.13462,-0.21729015,-0.8914569
55701528.479213,-0.22018437,-0.89090288
55801531.823807,-0.22312841,-0.89002389
55901535.1684,-0.2261674,-0.88956559
56001538.512994,-0.22903152,-0.88888299
56101541.857587,-0.23199144,-0.88800848
56201545.202181,-0.23489588,-0.88749558
56301548.546774,-0.23787294,-0.8867839
56401551.891368,-0.24085552,-0.88626456
56501555.235961,-0.24372104,-0.88536972
56601558.580555,-0.24653609,-0.88478428
56701561.925148,-0.24949548,-0.88418502
56801565.269741,-0.25255674,-0.88339788
56901568.614335,-0.25545573,-0.8826533
57001571.958928,-0.25837097,-0.88192546
57101575.303522,-0.26127186,-0.88117206
57201578.648115,-0.26420331,-0.88039863
57301581.992709,-0.26713639,-0.87952518
57401585.337302,-0.27005789,-0.87879694
57501588.681896,-0.27296045,-0.87799704
57601592.026489,-0.27585128,-0.87725532
57701595.371083,-0.27885291,-0.87633955
57801598.715676,-0.28173447,-0.87555569
57901602.06027,-0.28456968,-0.87478054
58001605.404863,-0.2873472,-0.87386036
58101608.749457,-0.29037231,-0.87304169
58201612.09405,-0.29322675,-0.87222445
58301615.438643,-0.29624861,-0.87140292
58401618.783237,-0.29911634,-0.87056071
58501622.12783,-0.30209473,-0.86965525
58601625.472424,-0.30487749,-0.8685922
58701628.817017,-0.30767936,-0.86776274
58801632.161611,-0.31068903,-0.8668021
58901635.506204,-0.31343004,-0.86590046
59001638.850798,-0.31632474,-0.86503154
59101642.195391,-0.31920409,-0.86404443
59201645.539985,-0.32202563,-0.86310756
59301648.884578,-0.32481655,-0.86214471
