!CSV A.01.01
!Agilent Technologies,N5227A,US51270345,A.09.80.20
!Agilent N5227A: A.09.80.20
!Date: Monday, November 26, 2018 16:10:40
!Source: Standard

BEGIN CH1_DATA
Freq(Hz),S11(REAL),S11(IMAG)
10000000,0.83336323,-0.24528717
10100003.344593,0.79400301,-0.32189071
10200006.689187,0.84188014,-0.36662319
10300010.03378,0.85311759,-0.26439196
10400013.378374,0.87624842,-0.32570675
10500016.722967,0.87597275,-0.32851696
10600020.067561,0.87321246,-0.32057202
10700023.412154,0.8484264,-0.31284538
10800026.756748,0.7826522,-0.28290492
10900030.101341,0.85110945,-0.29833439
11000033.445935,0.88041592,-0.3424302
11100036.790528,0.82934034,-0.30206656
11200040.135122,0.80590755,-0.38558081
11300043.479715,0.85135895,-0.30127665
11400046.824309,0.80973309,-0.37602794
11500050.168902,0.79403073,-0.37962031
11600053.513495,0.81985778,-0.34153336
11700056.858089,0.71320194,-0.39680603
11800060.202682,0.84254181,-0.32128629
11900063.547276,0.80793631,-0.39630473
12000066.891869,0.82794267,-0.36981562
12100070.236463,0.80487615,-0.35262549
12200073.581056,0.78927094,-0.37414834
12300076.92565,0.76022929,-0.35442719
12400080.270243,0.79673356,-0.39142346
12500083.614837,0.76002777,-0.4415285
12600086.95943,0.79161,-0.4025552
12700090.304024,0.76323545,-0.38989219
12800093.648617,0.81833529,-0.37096411
12900096.99321,0.73488939,-0.41262022
13000100.337804,0.82906342,-0.37522221
13100103.682397,0.75716889,-0.40450719
13200107.026991,0.81787997,-0.45450693
13300110.371584,0.82015723,-0.40763566
13400113.716178,0.8090933,-0.45985609
13500117.060771,0.7500065,-0.41577074
13600120.405365,0.77151626,-0.43877214
13700123.749958,0.76219893,-0.40818158
13800127.094552,0.74711943,-0.41672531
13900130.439145,0.75351763,-0.45275113
14000133.783739,0.7487523,-0.43434209
14100137.128332,0.73987961,-0.43255824
14200140.472926,0.7343483,-0.47308615
14300143.817519,0.74130511,-0.47699672
14400147.162112,0.76400816,-0.46705022
14500150.506706,0.76015687,-0.47899172
14600153.851299,0.74603951,-0.51875591
14700157.195893,0.73679662,-0.46318763
14800160.540486,0.71389616,-0.47798222
14900163.88508,0.71118867,-0.4642947
15000167.229673,0.7042554,-0.47044495
15100170.574267,0.74070275,-0.46797317
15200173.91886,0.74403834,-0.46682718
15300177.263454,0.73002988,-0.47275579
15400180.608047,0.72147596,-0.47256678
15500183.952641,0.77600145,-0.51699668
15600187.297234,0.70655537,-0.51898932
15700190.641827,0.69591528,-0.45611617
15800193.986421,0.73742932,-0.51809043
15900197.331014,0.74087918,-0.48686674
16000200.675608,0.71631783,-0.50410312
16100204.020201,0.72818917,-0.5165028
16200207.364795,0.74962211,-0.48543364
16300210.709388,0.6959908,-0.5492571
16400214.053982,0.72728258,-0.48506033
16500217.398575,0.71584135,-0.54306269
16600220.743169,0.72507167,-0.47633031
16700224.087762,0.67920715,-0.50549096
16800227.432356,0.69533181,-0.51818907
16900230.776949,0.67703968,-0.51824272
17000234.121543,0.68085426,-0.54203951
17100237.466136,0.69555175,-0.55484414
17200240.810729,0.68686926,-0.54966909
17300244.155323,0.694031,-0.54970562
17400247.499916,0.66194576,-0.56414938
17500250.84451,0.66922224,-0.51565516
17600254.189103,0.70759344,-0.55319446
17700257.533697,0.6314494,-0.56773597
17800260.87829,0.70777088,-0.57886159
17900264.222884,0.651272,-0.57414019
18000267.567477,0.63624948,-0.52612519
18100270.912071,0.67585778,-0.58596057
18200274.256664,0.686728,-0.58872032
18300277.601258,0.62267095,-0.58861911
18400280.945851,0.66999823,-0.61046684
18500284.290444,0.61500144,-0.59560281
18600287.635038,0.62994301,-0.57419449
18700290.979631,0.64725393,-0.60056341
18800294.324225,0.63693655,-0.6049968
18900297.668818,0.64853364,-0.58949447
19000301.013412,0.63493705,-0.5770005
19100304.358005,0.61647558,-0.60786635
19200307.702599,0.63498008,-0.60214669
19300311.047192,0.64230239,-0.62795389
19400314.391786,0.60981923,-0.60701966
19500317.736379,0.63074964,-0.60883045
19600321.080973,0.58852994,-0.60974836
19700324.425566,0.60831201,-0.61131388
19800327.77016,0.63037753,-0.62535036
19900331.114753,0.61443037,-0.61928582
20000334.459346,0.61644173,-0.61258441
20100337.80394,0.58422607,-0.62255222
20200341.148533,0.63480616,-0.64056093
20300344.493127,0.62708884,-0.60485286
20400347.83772,0.60037959,-0.61342353
20500351.182314,0.58406878,-0.64082545
20600354.526907,0.57365352,-0.64670306
20700357.871501,0.59232956,-0.62545586
20800361.216094,0.57238269,-0.60739833
20900364.560688,0.57289118,-0.6170488
21000367.905281,0.59896612,-0.65688616
21100371.249875,0.58640993,-0.65437114
21200374.594468,0.5629195,-0.658481
21300377.939062,0.5706296,-0.64165002
21400381.283655,0.54992676,-0.65391022
21500384.628248,0.56250429,-0.66985643
21600387.972842,0.57972151,-0.6752429
21700391.317435,0.55906457,-0.6756379
21800394.662029,0.54192746,-0.67532974
21900398.006622,0.55526578,-0.68548357
22000401.351216,0.536838,-0.67363119
22100404.695809,0.55026031,-0.66921347
22200408.040403,0.55610645,-0.68688178
22300411.384996,0.53165752,-0.6835205
22400414.72959,0.54497302,-0.65442222
22500418.074183,0.5306688,-0.67929161
22600421.418777,0.52320701,-0.70106351
22700424.76337,0.51890022,-0.68152589
22800428.107963,0.52027661,-0.7027936
22900431.452557,0.54648709,-0.69770873
23000434.79715,0.497311,-0.68483907
23100438.141744,0.53636009,-0.68366748
23200441.486337,0.51906073,-0.68123001
23300444.830931,0.49492157,-0.70178276
23400448.175524,0.51388657,-0.70126665
23500451.520118,0.5172022,-0.70462358
23600454.864711,0.49765161,-0.72605997
23700458.209305,0.51791584,-0.69790357
23800461.553898,0.47968823,-0.69399846
23900464.898492,0.51730585,-0.72173142
24000468.243085,0.48456627,-0.6964702
24100471.587679,0.50597692,-0.70364982
24200474.932272,0.50381029,-0.72733361
24300478.276865,0.48836797,-0.7185384
24400481.621459,0.49105757,-0.71573484
24500484.966052,0.47016287,-0.7308237
24600488.310646,0.47442338,-0.72154546
24700491.655239,0.47104284,-0.72706497
24800494.999833,0.45777246,-0.72593987
24900498.344426,0.48337546,-0.74632567
25000501.68902,0.46342254,-0.74485952
25100505.033613,0.44995558,-0.73693669
25200508.378207,0.44798413,-0.73425359
25300511.7228,0.44992471,-0.73632479
25400515.067394,0.45093149,-0.76148921
25500518.411987,0.47095853,-0.7368623
25600521.75658,0.44520581,-0.73726946
25700525.101174,0.46142864,-0.74998027
25800528.445767,0.44349253,-0.76048321
25900531.790361,0.44402856,-0.72422165
26000535.134954,0.41825584,-0.73502463
26100538.479548,0.42356852,-0.74609542
26200541.824141,0.42909494,-0.7474755
26300545.168735,0.41657776,-0.74491262
26400548.513328,0.42223462,-0.74245363
26500551.857922,0.41058201,-0.75646174
26600555.202515,0.41739497,-0.76470977
26700558.547109,0.40966687,-0.76985365
26800561.891702,0.41511512,-0.76509136
26900565.236296,0.39304632,-0.76233011
27000568.580889,0.4050611,-0.78501922
27100571.925482,0.39376479,-0.78389996
27200575.270076,0.39337608,-0.76323146
27300578.614669,0.38354865,-0.76784378
27400581.959263,0.39302719,-0.77792406
27500585.303856,0.38831973,-0.78091353
27600588.64845,0.37425148,-0.76556665
27700591.993043,0.38207436,-0.7781623
27800595.337637,0.37860951,-0.78530198
27900598.68223,0.36056334,-0.77031928
28000602.026824,0.375269,-0.7864418
28100605.371417,0.37002596,-0.78476173
28200608.716011,0.36673847,-0.80032152
28300612.060604,0.35199738,-0.78530538
28400615.405197,0.33840388,-0.78406417
28500618.749791,0.3446674,-0.76760554
28600622.094384,0.35426152,-0.80472881
28700625.438978,0.3348079,-0.79504138
28800628.783571,0.34288189,-0.78734094
28900632.128165,0.35331285,-0.77691215
29000635.472758,0.32557917,-0.78999645
29100638.817352,0.32461715,-0.80706692
29200642.161945,0.33636978,-0.79420674
29300645.506539,0.32930967,-0.79996473
29400648.851132,0.32395333,-0.79331738
29500652.195726,0.32194605,-0.8047846
29600655.540319,0.31133616,-0.81626469
29700658.884913,0.31504256,-0.81144142
29800662.229506,0.3161124,-0.80376333
29900665.574099,0.30167288,-0.81269723
30000668.918693,0.30035484,-0.81240827
30100672.263286,0.3021777,-0.81225127
30200675.60788,0.29771066,-0.80657309
30300678.952473,0.30116662,-0.80122066
30400682.297067,0.28383449,-0.80957127
30500685.64166,0.28926975,-0.81950313
30600688.986254,0.29025111,-0.82447237
30700692.330847,0.29138061,-0.81285024
30800695.675441,0.28685993,-0.82126105
30900699.020034,0.262077,-0.80882967
31000702.364628,0.26744157,-0.82009101
31100705.709221,0.26966301,-0.81565744
31200709.053815,0.2526255,-0.81743145
31300712.398408,0.26624146,-0.81945992
31400715.743001,0.26183856,-0.80877149
31500719.087595,0.26116937,-0.82763618
31600722.432188,0.23850052,-0.82376039
31700725.776782,0.24903014,-0.82274359
31800729.121375,0.23671763,-0.82377392
31900732.465969,0.23344699,-0.8342976
32000735.810562,0.24057673,-0.82803667
32100739.155156,0.23210481,-0.83122617
32200742.499749,0.22412434,-0.82064939
32300745.844343,0.21600384,-0.84863192
32400749.188936,0.22343652,-0.82361281
32500752.53353,0.21044846,-0.83155209
32600755.878123,0.20447131,-0.84290308
32700759.222716,0.21221036,-0.85023731
32800762.56731,0.21104792,-0.83057022
32900765.911903,0.20106506,-0.83246118
33000769.256497,0.2015992,-0.83836663
33100772.60109,0.20295238,-0.83399051
33200775.945684,0.18767187,-0.84002662
33300779.290277,0.18928486,-0.83999217
33400782.634871,0.17800222,-0.83314621
33500785.979464,0.18635806,-0.84076017
33600789.324058,0.17340264,-0.84905332
33700792.668651,0.17436902,-0.8414402
33800796.013245,0.16431908,-0.8407647
33900799.357838,0.1613605,-0.84879863
34000802.702432,0.16387217,-0.84419107
34100806.047025,0.16526595,-0.84451509
34200809.391618,0.15638241,-0.83953214
34300812.736212,0.15436611,-0.84340078
34400816.080805,0.14585972,-0.84181118
34500819.425399,0.16680802,-0.85669744
34600822.769992,0.13974312,-0.86066079
34700826.114586,0.13433023,-0.86101526
34800829.459179,0.13551831,-0.85669827
34900832.803773,0.10954072,-0.85238439
35000836.148366,0.13076879,-0.85235178
35100839.49296,0.13726263,-0.85543931
35200842.837553,0.10944854,-0.86711025
35300846.182147,0.10879949,-0.8435812
35400849.52674,0.11965747,-0.85648477
35500852.871333,0.12155715,-0.84390867
35600856.215927,0.096410304,-0.8544538
35700859.56052,0.098739102,-0.85182649
35800862.905114,0.10326701,-0.85108429
35900866.249707,0.09224648,-0.84236896
36000869.594301,0.086068362,-0.85501635
36100872.938894,0.096421011,-0.85608411
36200876.283488,0.083859794,-0.86935943
36300879.628081,0.070693076,-0.85515785
36400882.972675,0.070780978,-0.86371773
36500886.317268,0.082917206,-0.86740369
36600889.661862,0.061525494,-0.86323059
36700893.006455,0.078143783,-0.85708165
36800896.351049,0.071140714,-0.86685562
36900899.695642,0.063266337,-0.86651266
37000903.040235,0.060298737,-0.85599363
37100906.384829,0.053043783,-0.85879111
37200909.729422,0.045672886,-0.86346513
37300913.074016,0.042070683,-0.8536216
37400916.418609,0.052862767,-0.86816978
37500919.763203,0.034109443,-0.86072463
37600923.107796,0.039672341,-0.86761236
37700926.45239,0.034011915,-0.85993344
37800929.796983,0.026577093,-0.85268039
37900933.141577,0.030334022,-0.85454094
38000936.48617,0.018184472,-0.85669053
38100939.830764,0.021351412,-0.86985749
38200943.175357,0.012628361,-0.86240071
38300946.51995,0.01602393,-0.86303318
38400949.864544,0.0043786969,-0.85232627
38500953.209137,0.0021391765,-0.86710066
38600956.553731,-0.0017622636,-0.85343963
38700959.898324,-0.0015344415,-0.86908787
38800963.242918,-0.0078568943,-0.87160927
38900966.587511,-0.0032448953,-0.86211598
39000969.932105,-0.015562115,-0.85811669
39100973.276698,-0.021699792,-0.87132502
39200976.621292,-0.017267892,-0.86181718
39300979.965885,-0.028026422,-0.8719573
39400983.310479,-0.023099799,-0.86524647
39500986.655072,-0.03754729,-0.84942567
39600989.999666,-0.033482898,-0.86440957
39700993.344259,-0.041230667,-0.86452675
39800996.688852,-0.039466862,-0.8537311
39901000.033446,-0.048309453,-0.85670811
40001003.378039,-0.046028264,-0.86622715
40101006.722633,-0.056581687,-0.86513931
40201010.067226,-0.058701817,-0.85111088
40301013.41182,-0.059406377,-0.86945361
40401016.756413,-0.064851627,-0.8536517
40501020.101007,-0.061148927,-0.86566323
40601023.4456,-0.064153738,-0.85259259
40701026.790194,-0.077000909,-0.86328465
40801030.134787,-0.064744264,-0.86352772
40901033.479381,-0.07754676,-0.86443973
41001036.823974,-0.085631631,-0.86485249
41101040.168568,-0.084316432,-0.86090767
41201043.513161,-0.085826784,-0.86431605
41301046.857754,-0.085237034,-0.84945303
41401050.202348,-0.090616494,-0.8670578
41501053.546941,-0.10427189,-0.85199612
41601056.891535,-0.10844699,-0.86838949
41701060.236128,-0.10754105,-0.8529768
41801063.580722,-0.11604226,-0.84650826
41901066.925315,-0.11142103,-0.86654443
42001070.269909,-0.12563127,-0.85338092
42101073.614502,-0.11544888,-0.85636711
42201076.959096,-0.12224762,-0.85529608
42301080.303689,-0.12410834,-0.8610428
42401083.648283,-0.1398095,-0.86045372
42501086.992876,-0.14150211,-0.84704959
42601090.337469,-0.14865619,-0.8618595
42701093.682063,-0.15473634,-0.85609925
42801097.026656,-0.14342132,-0.85942656
42901100.37125,-0.14006796,-0.85592628
43001103.715843,-0.15014876,-0.85009581
43101107.060437,-0.15414773,-0.85231739
43201110.40503,-0.153339,-0.84749621
43301113.749624,-0.15852599,-0.84890187
43401117.094217,-0.1709637,-0.86371046
43501120.438811,-0.16719247,-0.84856564
43601123.783404,-0.16921608,-0.84521002
43701127.127998,-0.18421744,-0.85000479
43801130.472591,-0.18045767,-0.84582961
43901133.817185,-0.18052885,-0.8497985
44001137.161778,-0.1901374,-0.84129131
44101140.506371,-0.17850427,-0.83888519
44201143.850965,-0.19152661,-0.84058905
44301147.195558,-0.20501912,-0.8318758
44401150.540152,-0.20956086,-0.83755231
44501153.884745,-0.20808503,-0.83036542
44601157.229339,-0.21112972,-0.83916724
44701160.573932,-0.21565947,-0.83607399
44801163.918526,-0.21380347,-0.84387761
44901167.263119,-0.21776325,-0.840343
45001170.607713,-0.22036146,-0.83971554
45101173.952306,-0.23023401,-0.83265615
45201177.2969,-0.22986555,-0.83128506
45301180.641493,-0.22930527,-0.82903957
45401183.986086,-0.24073914,-0.83421725
45501187.33068,-0.24125229,-0.82838601
45601190.675273,-0.24353756,-0.82642514
45701194.019867,-0.24892034,-0.83091575
45801197.36446,-0.25518245,-0.83468097
45901200.709054,-0.24427611,-0.83023018
46001204.053647,-0.26332703,-0.83019847
46101207.398241,-0.27039999,-0.82162702
46201210.742834,-0.25954098,-0.82334888
46301214.087428,-0.26122293,-0.82908183
46401217.432021,-0.26730597,-0.81771624
46501220.776615,-0.27006966,-0.82413697
46601224.121208,-0.27907306,-0.82546496
46701227.465802,-0.2865971,-0.81349564
46801230.810395,-0.29269415,-0.82225537
46901234.154988,-0.30306414,-0.8167401
47001237.499582,-0.29511419,-0.81945002
47101240.844175,-0.29994306,-0.81122291
47201244.188769,-0.30079702,-0.80844182
47301247.533362,-0.30105302,-0.81192517
47401250.877956,-0.31083032,-0.80631691
47501254.222549,-0.31279522,-0.81235236
47601257.567143,-0.31298301,-0.81527621
47701260.911736,-0.3198933,-0.80738991
47801264.25633,-0.31792435,-0.8163588
47901267.600923,-0.3302038,-0.80834484
48001270.945517,-0.32934651,-0.80000633
48101274.29011,-0.33586079,-0.80265057
48201277.634704,-0.34028706,-0.79711509
48301280.979297,-0.33530214,-0.80137295
48401284.32389,-0.33436149,-0.80070662
48501287.668484,-0.34007075,-0.80346185
48601291.013077,-0.34944353,-0.79923993
48701294.357671,-0.34223527,-0.80569172
48801297.702264,-0.3555645,-0.80136198
48901301.046858,-0.35110971,-0.78960299
49001304.391451,-0.3576842,-0.793118
49101307.736045,-0.35353035,-0.79143298
49201311.080638,-0.3669267,-0.78622985
49301314.425232,-0.36785212,-0.78750986
49401317.769825,-0.37074342,-0.78276527
49501321.114419,-0.3718746,-0.77686667
49601324.459012,-0.37930685,-0.77762645
49701327.803605,-0.385625,-0.78640807
49801331.148199,-0.39063707,-0.77434587
49901334.492792,-0.39174217,-0.77568668
50001337.837386,-0.39616638,-0.76911491
50101341.181979,-0.39181522,-0.76846254
50201344.526573,-0.40211207,-0.77171242
50301347.871166,-0.403377,-0.76563525
50401351.21576,-0.40021461,-0.776537
50501354.560353,-0.40309963,-0.76809967
50601357.904947,-0.41304663,-0.76396382
50701361.24954,-0.41281384,-0.7702269
50801364.594134,-0.42408705,-0.76061386
50901367.938727,-0.43057206,-0.76933122
51001371.283321,-0.42672122,-0.76093513
51101374.627914,-0.42410129,-0.75442958
51201377.972507,-0.42703351,-0.74582458
51301381.317101,-0.4297449,-0.76380593
51401384.661694,-0.43554804,-0.75393987
51501388.006288,-0.43889475,-0.74882245
51601391.350881,-0.44489431,-0.74803412
51701394.695475,-0.44507816,-0.748043
51801398.040068,-0.45175165,-0.74663234
51901401.384662,-0.45093349,-0.74703836
52001404.729255,-0.4524467,-0.74968237
52101408.073849,-0.45595163,-0.73923981
52201411.418442,-0.45983437,-0.73392516
52301414.763036,-0.46818724,-0.74118412
52401418.107629,-0.46831653,-0.73118484
52501421.452222,-0.47143352,-0.73018551
52601424.796816,-0.46920919,-0.72820514
52701428.141409,-0.47398478,-0.73257858
52801431.486003,-0.48040214,-0.72461528
52901434.830596,-0.47857258,-0.72663873
53001438.17519,-0.51602101,-0.71304756
53101441.519783,-0.49998602,-0.73195213
53201444.864377,-0.51368558,-0.71256405
53301448.20897,-0.50620288,-0.72133631
53401451.553564,-0.49930179,-0.69531101
53501454.898157,-0.50279719,-0.71199262
53601458.242751,-0.52376407,-0.70480502
53701461.587344,-0.51019454,-0.69959867
53801464.931938,-0.52426612,-0.69671828
53901468.276531,-0.52416265,-0.6944049
54001471.621124,-0.53189176,-0.69524866
54101474.965718,-0.51895094,-0.67268056
54201478.310311,-0.52996367,-0.68419302
54301481.654905,-0.5297063,-0.67817277
54401484.999498,-0.53202301,-0.67739028
54501488.344092,-0.53025007,-0.6934768
54601491.688685,-0.54779267,-0.66277522
54701495.033279,-0.54900581,-0.68677884
54801498.377872,-0.53308743,-0.67672056
54901501.722466,-0.55240506,-0.67893511
55001505.067059,-0.55570674,-0.66482371
55101508.411653,-0.55997831,-0.6766277
55201511.756246,-0.56033707,-0.67155164
55301515.100839,-0.56934613,-0.66968548
55401518.445433,-0.56993377,-0.66693872
55501521.790026,-0.57816774,-0.67376989
55601525.13462,-0.57133138,-0.66268873
55701528.479213,-0.5844273,-0.65842086
55801531.823807,-0.5471409,-0.66912007
55901535.1684,-0.58425033,-0.65602332
56001538.512994,-0.59141129,-0.63660604
56101541.857587,-0.57838136,-0.63621247
56201545.202181,-0.58562225,-0.63686198
56301548.546774,-0.59274805,-0.63454306
56401551.891368,-0.58419734,-0.63884604
56501555.235961,-0.59816146,-0.64103234
56601558.580555,-0.61010778,-0.6153456
56701561.925148,-0.59936899,-0.66427529
56801565.269741,-0.60256737,-0.62849063
56901568.614335,-0.60464936,-0.63305879
57001571.958928,-0.62864023,-0.64431411
57101575.303522,-0.62289113,-0.63295388
57201578.648115,-0.61878407,-0.6317305
57301581.992709,-0.62351084,-0.60860264
57401585.337302,-0.63659257,-0.6275956
57501588.681896,-0.63323247,-0.61130035
57601592.026489,-0.61181152,-0.61787307
57701595.371083,-0.64695507,-0.61179429
57801598.715676,-0.64902771,-0.61758369
57901602.06027,-0.63828385,-0.61369985
58001605.404863,-0.64842653,-0.61301488
58101608.749457,-0.63371289,-0.59763998
58201612.09405,-0.64436948,-0.58869529
58301615.438643,-0.66768646,-0.58487302
58401618.783237,-0.66625714,-0.59156579
58501622.12783,-0.6471622,-0.59864658
58601625.472424,-0.65585291,-0.59659052
58701628.817017,-0.64862269,-0.58842742
58801632.161611,-0.66571194,-0.56805146
58901635.506204,-0.66604948,-0.57102138
59001638.850798,-0.66252482,-0.56466389
59101642.195391,-0.68274248,-0.58124655
