!CSV A.01.01
!Agilent Technologies,N5227A,US51270345,A.09.80.20
!Agilent N5227A: A.09.80.20
!Date: Monday, November 26, 2018 16:15:49
!Source: Standard

BEGIN CH1_DATA
Freq(Hz),S11(REAL),S11(IMAG)
10000000,1.003901,-0.074784465
10100003.344593,0.97223341,-0.034181848
10200006.689187,0.93509895,-0.1272326
10300010.03378,0.93347025,-0.033033736
10400013.378374,1.0240301,0.062442604
10500016.722967,0.95029598,-0.0095806709
10600020.067561,0.95918834,-0.0288473
10700023.412154,0.83896035,-0.026256545
10800026.756748,0.95268476,0.023388807
10900030.101341,0.96440786,-0.038905613
11000033.445935,0.89296579,-0.098523811
11100036.790528,0.94865519,-0.026290081
11200040.135122,0.95270467,0.025774017
11300043.479715,0.91142768,-0.060005907
11400046.824309,1.0144864,-0.062440764
11500050.168902,0.99622416,-0.053204101
11600053.513495,0.90757424,-0.059854861
11700056.858089,0.93807501,-0.055209834
11800060.202682,0.87600005,-0.029711954
11900063.547276,0.94243133,-0.050676838
12000066.891869,0.90310985,-0.1173645
12100070.236463,0.91439402,-0.0058236071
12200073.581056,0.90670651,-0.068721265
12300076.92565,0.95791197,-0.038837425
12400080.270243,0.9568758,-0.054629449
12500083.614837,0.90158188,-0.065359496
12600086.95943,0.91778976,-0.050637666
12700090.304024,0.89105135,-0.041275371
12800093.648617,0.9325192,-0.048365418
12900096.99321,0.91305608,-0.035092127
13000100.337804,0.95373207,0.010816236
13100103.682397,0.90858263,-0.0066547198
13200107.026991,0.92583501,-0.09820056
13300110.371584,0.94792104,-0.065597177
13400113.716178,0.97730243,-0.099272214
13500117.060771,0.94938093,-0.099649496
13600120.405365,0.86915594,-0.096849605
13700123.749958,0.93437374,-0.092068858
13800127.094552,0.96045762,-0.072990216
13900130.439145,0.93000209,-0.011818525
14000133.783739,0.94952482,-0.085023686
14100137.128332,0.9272688,-0.062351972
14200140.472926,0.90982425,-0.088737659
14300143.817519,0.96245587,-0.10330352
14400147.162112,0.93803138,-0.092042625
14500150.506706,0.92818338,-0.035720848
14600153.851299,0.99312949,-0.085651144
14700157.195893,0.92281622,-0.091203399
14800160.540486,0.96319604,-0.13237907
14900163.88508,0.96549559,-0.056949206
15000167.229673,0.96821582,-0.10401683
15100170.574267,0.91345072,-0.085305043
15200173.91886,0.93994462,-0.053572118
15300177.263454,0.91019148,-0.12246545
15400180.608047,0.90788341,-0.082607754
15500183.952641,0.93237561,-0.05972752
15600187.297234,0.98034859,-0.11224986
15700190.641827,0.91251552,-0.095291033
15800193.986421,0.96039939,-0.11751241
15900197.331014,0.95265675,-0.077143662
16000200.675608,0.96118104,-0.13965245
16100204.020201,0.94326401,-0.12243585
16200207.364795,0.94188768,-0.05232054
16300210.709388,0.9238168,-0.12917891
16400214.053982,0.90634221,-0.097142607
16500217.398575,0.94383055,-0.1226211
16600220.743169,0.92644405,-0.067604817
16700224.087762,0.91875702,-0.12500472
16800227.432356,0.98618972,-0.14649811
16900230.776949,0.95441973,-0.099458553
17000234.121543,0.96944422,-0.16571006
17100237.466136,0.96292257,-0.095799841
17200240.810729,0.96274835,-0.10462555
17300244.155323,0.9344483,-0.11441538
17400247.499916,0.95364773,-0.13788924
17500250.84451,0.94100595,-0.12613334
17600254.189103,0.94648337,-0.12397925
17700257.533697,0.94550031,-0.088686615
17800260.87829,0.93018717,-0.11940546
17900264.222884,0.95603365,-0.094750486
18000267.567477,0.98355103,-0.1381612
18100270.912071,0.95364362,-0.11398876
18200274.256664,0.98495638,-0.14833316
18300277.601258,0.93014956,-0.13391563
18400280.945851,0.97180098,-0.13499925
18500284.290444,0.94050503,-0.16258708
18600287.635038,0.92983735,-0.12875666
18700290.979631,0.93642056,-0.15272138
18800294.324225,0.9799518,-0.12857214
18900297.668818,0.92403901,-0.11733299
19000301.013412,0.93476629,-0.12636653
19100304.358005,0.95382982,-0.11998677
19200307.702599,0.94499481,-0.13834067
19300311.047192,0.94857091,-0.11379537
19400314.391786,0.94630313,-0.12859522
19500317.736379,0.94872922,-0.12369493
19600321.080973,0.98952997,-0.13529105
19700324.425566,0.9771775,-0.14804298
19800327.77016,0.93797725,-0.12718898
19900331.114753,0.9528628,-0.1518978
20000334.459346,0.91475892,-0.13469376
20100337.80394,0.97230268,-0.16917692
20200341.148533,0.94438726,-0.12435108
20300344.493127,0.93349761,-0.14081918
20400347.83772,0.9276157,-0.12721314
20500351.182314,0.96317339,-0.14247362
20600354.526907,0.94857258,-0.14827292
20700357.871501,0.94583744,-0.14386471
20800361.216094,0.94275331,-0.13432649
20900364.560688,0.93835551,-0.14450227
21000367.905281,0.96798956,-0.14920625
21100371.249875,0.95799726,-0.16615702
21200374.594468,0.94684392,-0.1584163
21300377.939062,0.9434666,-0.12964575
21400381.283655,0.96368665,-0.13765188
21500384.628248,0.93834239,-0.13917112
21600387.972842,0.94799536,-0.16545515
21700391.317435,0.94856459,-0.14456719
21800394.662029,0.95617783,-0.16798052
21900398.006622,0.9413833,-0.16395077
22000401.351216,0.93285692,-0.12691298
22100404.695809,0.93669814,-0.16950007
22200408.040403,0.98493755,-0.16029824
22300411.384996,0.96611536,-0.15319641
22400414.72959,0.91282868,-0.15920189
22500418.074183,0.93307501,-0.17970027
22600421.418777,0.96331722,-0.18151601
22700424.76337,0.95631516,-0.16770883
22800428.107963,0.94354755,-0.16173853
22900431.452557,0.92784911,-0.14293112
23000434.79715,0.94496369,-0.14244196
23100438.141744,0.92989677,-0.1650086
23200441.486337,0.93736511,-0.16558842
23300444.830931,0.96179652,-0.17356613
23400448.175524,0.96169662,-0.18645877
23500451.520118,0.95508432,-0.17991418
23600454.864711,0.93893856,-0.14148095
23700458.209305,0.93529779,-0.18941551
23800461.553898,0.9310146,-0.14355758
23900464.898492,0.96268916,-0.16827826
24000468.243085,0.95151228,-0.18885708
24100471.587679,0.91770327,-0.17413813
24200474.932272,0.93587524,-0.1828758
24300478.276865,0.93634993,-0.17181133
24400481.621459,0.95571488,-0.16481091
24500484.966052,0.95782721,-0.17041554
24600488.310646,0.93103522,-0.19497447
24700491.655239,0.91145414,-0.19327518
24800494.999833,0.93194216,-0.17715664
24900498.344426,0.94807148,-0.17679557
25000501.68902,0.93593305,-0.17759222
25100505.033613,0.97345871,-0.19913127
25200508.378207,0.93692374,-0.18853875
25300511.7228,0.93795723,-0.17505161
25400515.067394,0.93515903,-0.18968929
25500518.411987,0.94152176,-0.19465141
25600521.75658,0.94178301,-0.18477163
25700525.101174,0.9437263,-0.19563179
25800528.445767,0.94124866,-0.20438027
25900531.790361,0.94890827,-0.19452886
26000535.134954,0.933981,-0.21007434
26100538.479548,0.94449216,-0.16665027
26200541.824141,0.9498803,-0.2134499
26300545.168735,0.95018953,-0.20766164
26400548.513328,0.93029302,-0.18207233
26500551.857922,0.94696558,-0.19900253
26600555.202515,0.94720173,-0.18438792
26700558.547109,0.94341385,-0.1867858
26800561.891702,0.92596769,-0.19676383
26900565.236296,0.94308478,-0.21202238
27000568.580889,0.9305371,-0.20467651
27100571.925482,0.95207596,-0.1831698
27200575.270076,0.94821554,-0.21060777
27300578.614669,0.93743551,-0.21166916
27400581.959263,0.92781878,-0.19630553
27500585.303856,0.9497354,-0.21261863
27600588.64845,0.93922526,-0.19600001
27700591.993043,0.94714141,-0.18468298
27800595.337637,0.92020637,-0.19811891
27900598.68223,0.92829382,-0.1950084
28000602.026824,0.93726891,-0.20275885
28100605.371417,0.92918676,-0.19530787
28200608.716011,0.93763268,-0.19658725
28300612.060604,0.93041396,-0.22092284
28400615.405197,0.93240178,-0.21532845
28500618.749791,0.93464828,-0.20457092
28600622.094384,0.93281901,-0.21327995
28700625.438978,0.93386525,-0.22016308
28800628.783571,0.94248593,-0.21504317
28900632.128165,0.93365157,-0.21891227
29000635.472758,0.95285714,-0.20819035
29100638.817352,0.93913394,-0.2286658
29200642.161945,0.9263767,-0.21100259
29300645.506539,0.93544745,-0.21849589
29400648.851132,0.94137573,-0.21961814
29500652.195726,0.93147308,-0.2262615
29600655.540319,0.95009285,-0.221066
29700658.884913,0.9396311,-0.21553759
29800662.229506,0.93258321,-0.23246641
29900665.574099,0.92462391,-0.21979858
30000668.918693,0.92900234,-0.21289273
30100672.263286,0.93167919,-0.24019223
30200675.60788,0.938537,-0.22716422
30300678.952473,0.92844898,-0.20579553
30400682.297067,0.92702568,-0.22933514
30500685.64166,0.91581684,-0.23515804
30600688.986254,0.92854124,-0.24387872
30700692.330847,0.93609196,-0.22018822
30800695.675441,0.92722803,-0.22458196
30900699.020034,0.93316698,-0.23140703
31000702.364628,0.9380601,-0.21984893
31100705.709221,0.92743605,-0.23343706
31200709.053815,0.93714559,-0.23829289
31300712.398408,0.94466519,-0.22376071
31400715.743001,0.93584561,-0.24335854
31500719.087595,0.92129081,-0.24795303
31600722.432188,0.93171513,-0.25216249
31700725.776782,0.92586911,-0.22071587
31800729.121375,0.92619687,-0.24760583
31900732.465969,0.92741382,-0.25558966
32000735.810562,0.93179792,-0.23724903
32100739.155156,0.93326646,-0.25006109
32200742.499749,0.92120451,-0.24265994
32300745.844343,0.9241147,-0.25510272
32400749.188936,0.93363905,-0.24620901
32500752.53353,0.93168688,-0.24254392
32600755.878123,0.92372358,-0.26231319
32700759.222716,0.91101712,-0.24585226
32800762.56731,0.93328279,-0.24569049
32900765.911903,0.93057352,-0.24432351
33000769.256497,0.92686778,-0.24860379
33100772.60109,0.92791754,-0.24938163
33200775.945684,0.93495786,-0.2567122
33300779.290277,0.94054741,-0.25540408
33400782.634871,0.92434514,-0.25146502
33500785.979464,0.92403245,-0.27027452
33600789.324058,0.93142152,-0.26142585
33700792.668651,0.91694212,-0.25646305
33800796.013245,0.93679076,-0.26249397
33900799.357838,0.93103439,-0.2504181
34000802.702432,0.92433101,-0.25422993
34100806.047025,0.9211548,-0.25971296
34200809.391618,0.91548097,-0.26502842
34300812.736212,0.90893734,-0.26613805
34400816.080805,0.9155364,-0.26277551
34500819.425399,0.91722429,-0.25464782
34600822.769992,0.91589683,-0.26988652
34700826.114586,0.91714042,-0.26134557
34800829.459179,0.9182992,-0.27225161
34900832.803773,0.92809516,-0.24656267
35000836.148366,0.92459744,-0.28025332
35100839.49296,0.9240908,-0.25695068
35200842.837553,0.932091,-0.26601383
35300846.182147,0.92190307,-0.27786005
35400849.52674,0.91764969,-0.26094586
35500852.871333,0.9170379,-0.2817899
35600856.215927,0.92312253,-0.27625513
35700859.56052,0.9220174,-0.27110049
35800862.905114,0.9138034,-0.28617483
35900866.249707,0.91174597,-0.26251155
36000869.594301,0.90954864,-0.26005241
36100872.938894,0.91782635,-0.26473421
36200876.283488,0.91996706,-0.27906772
36300879.628081,0.9285143,-0.29645762
36400882.972675,0.92466056,-0.27615955
36500886.317268,0.92453057,-0.27718958
36600889.661862,0.91360509,-0.28231487
36700893.006455,0.91222858,-0.27750412
36800896.351049,0.92477071,-0.28660184
36900899.695642,0.91378886,-0.27990097
37000903.040235,0.92260772,-0.28252453
37100906.384829,0.91802841,-0.27277833
37200909.729422,0.92103964,-0.28976601
37300913.074016,0.9196111,-0.27227944
37400916.418609,0.92193353,-0.28495902
37500919.763203,0.9159146,-0.29085612
37600923.107796,0.91048521,-0.28386202
37700926.45239,0.9219113,-0.28094897
37800929.796983,0.91503489,-0.285092
37900933.141577,0.9199807,-0.28428176
38000936.48617,0.90861559,-0.27654919
38100939.830764,0.9140712,-0.29810882
38200943.175357,0.91350275,-0.29643452
38300946.51995,0.91441125,-0.29454273
38400949.864544,0.91413248,-0.29072472
38500953.209137,0.9063521,-0.28955558
38600956.553731,0.91778994,-0.29291731
38700959.898324,0.89722598,-0.31193241
38800963.242918,0.90542668,-0.29399279
38900966.587511,0.90810037,-0.30383474
39000969.932105,0.90377218,-0.3078202
39100973.276698,0.92507625,-0.30191189
39200976.621292,0.90262789,-0.30771577
39300979.965885,0.9183737,-0.29993561
39400983.310479,0.91308457,-0.30650342
39500986.655072,0.90727317,-0.29963848
39600989.999666,0.91056836,-0.30618301
39700993.344259,0.90948045,-0.31466898
39800996.688852,0.89213973,-0.29924068
39901000.033446,0.90452027,-0.30858481
40001003.378039,0.91294467,-0.30679825
40101006.722633,0.90410089,-0.30114141
40201010.067226,0.90577638,-0.30765191
40301013.41182,0.90016234,-0.32022589
40401016.756413,0.90993822,-0.31798518
40501020.101007,0.90980619,-0.30246741
40601023.4456,0.91032165,-0.31351653
40701026.790194,0.89880294,-0.30568281
40801030.134787,0.90582162,-0.32024041
40901033.479381,0.90437454,-0.32251224
41001036.823974,0.90582842,-0.32136044
41101040.168568,0.89624882,-0.32260191
41201043.513161,0.90525562,-0.31520519
41301046.857754,0.90541959,-0.32622868
41401050.202348,0.89971513,-0.30978096
41501053.546941,0.90295768,-0.31939912
41601056.891535,0.90331852,-0.32174528
41701060.236128,0.90787959,-0.32085186
41801063.580722,0.89301729,-0.31464589
41901066.925315,0.90190643,-0.31711227
42001070.269909,0.90122539,-0.31242013
42101073.614502,0.90221262,-0.31542468
42201076.959096,0.88987458,-0.32734719
42301080.303689,0.91405886,-0.3216303
42401083.648283,0.9015379,-0.32008874
42501086.992876,0.9043293,-0.32318437
42601090.337469,0.89946896,-0.32559556
42701093.682063,0.88997644,-0.32907665
42801097.026656,0.90602559,-0.33757097
42901100.37125,0.89549673,-0.31896511
43001103.715843,0.90002602,-0.32127324
43101107.060437,0.89168966,-0.32529044
43201110.40503,0.90365857,-0.33103806
43301113.749624,0.89616293,-0.33436128
43401117.094217,0.89696074,-0.31712949
43501120.438811,0.90778023,-0.33973718
43601123.783404,0.88944542,-0.32831511
43701127.127998,0.91199172,-0.34163421
43801130.472591,0.90537232,-0.33282086
43901133.817185,0.88739896,-0.3258175
44001137.161778,0.90302086,-0.33342838
44101140.506371,0.89832532,-0.32561901
44201143.850965,0.88898939,-0.34042838
44301147.195558,0.89071459,-0.33937594
44401150.540152,0.89214033,-0.34038341
44501153.884745,0.89451206,-0.35180655
44601157.229339,0.88050306,-0.33713725
44701160.573932,0.88371152,-0.32861155
44801163.918526,0.89729309,-0.34033144
44901167.263119,0.89098108,-0.34704348
45001170.607713,0.88426489,-0.34674761
45101173.952306,0.8846246,-0.35388952
45201177.2969,0.88541538,-0.3427594
45301180.641493,0.89348322,-0.35049185
45401183.986086,0.89444417,-0.34201035
45501187.33068,0.8874051,-0.34969875
45601190.675273,0.88334531,-0.33471137
45701194.019867,0.8886134,-0.35541135
45801197.36446,0.89399719,-0.34684744
45901200.709054,0.89194113,-0.34774026
46001204.053647,0.89414728,-0.35665962
46101207.398241,0.88578224,-0.34799838
46201210.742834,0.89786375,-0.3390846
46301214.087428,0.88498801,-0.3531622
46401217.432021,0.88780135,-0.34861842
46501220.776615,0.89116144,-0.3501552
46601224.121208,0.89129066,-0.35215393
46701227.465802,0.88000667,-0.34691808
46801230.810395,0.89975637,-0.35368669
46901234.154988,0.88580656,-0.36808255
47001237.499582,0.87411386,-0.35667351
47101240.844175,0.89504027,-0.35290304
47201244.188769,0.88417828,-0.36537918
47301247.533362,0.89541644,-0.35771292
47401250.877956,0.8864435,-0.36121568
47501254.222549,0.8936215,-0.36034563
47601257.567143,0.87730068,-0.36039725
47701260.911736,0.87243062,-0.35807857
47801264.25633,0.88511735,-0.35667986
47901267.600923,0.88343263,-0.37132376
48001270.945517,0.8849442,-0.36301008
48101274.29011,0.88724804,-0.37101817
48201277.634704,0.88358384,-0.37027901
48301280.979297,0.89278388,-0.37036914
48401284.32389,0.88604987,-0.36730987
48501287.668484,0.88105178,-0.36686361
48601291.013077,0.88541585,-0.37151361
48701294.357671,0.87562627,-0.36916706
48801297.702264,0.88142508,-0.37274939
48901301.046858,0.88349187,-0.36668107
49001304.391451,0.87726671,-0.37415674
49101307.736045,0.87827367,-0.38091251
49201311.080638,0.87746006,-0.37908903
49301314.425232,0.88444948,-0.37280223
49401317.769825,0.87808883,-0.37705538
49501321.114419,0.8769986,-0.37737989
49601324.459012,0.88019788,-0.38025412
49701327.803605,0.88257796,-0.3872208
49801331.148199,0.88034302,-0.37699229
49901334.492792,0.87408012,-0.37278232
50001337.837386,0.87685686,-0.38380221
50101341.181979,0.87850314,-0.37361628
50201344.526573,0.88705951,-0.38727638
50301347.871166,0.87814969,-0.37805125
50401351.21576,0.87677199,-0.37719271
50501354.560353,0.88778311,-0.38113007
50601357.904947,0.87890774,-0.3835879
50701361.24954,0.87323713,-0.38361683
50801364.594134,0.88067138,-0.38936254
50901367.938727,0.87280262,-0.38548136
51001371.283321,0.86620039,-0.38838986
51101374.627914,0.87560582,-0.39151952
51201377.972507,0.87932646,-0.38098222
51301381.317101,0.87449509,-0.38236019
51401384.661694,0.86673397,-0.39521074
51501388.006288,0.86726207,-0.38802037
51601391.350881,0.87449557,-0.38271472
51701394.695475,0.87101614,-0.38502324
51801398.040068,0.87026298,-0.39134118
51901401.384662,0.86178142,-0.38313138
52001404.729255,0.87586713,-0.39390305
52101408.073849,0.86825085,-0.39889288
52201411.418442,0.87180018,-0.39049947
52301414.763036,0.86698639,-0.39098457
52401418.107629,0.86917692,-0.39682502
52501421.452222,0.86778396,-0.40088728
52601424.796816,0.86170208,-0.39964297
52701428.141409,0.86738509,-0.39818114
52801431.486003,0.86347717,-0.40468612
52901434.830596,0.86505842,-0.39201054
53001438.17519,0.85247684,-0.40010974
53101441.519783,0.86044407,-0.39281246
53201444.864377,0.86270887,-0.4017711
53301448.20897,0.86475414,-0.40394077
53401451.553564,0.87155193,-0.39268291
53501454.898157,0.84565979,-0.41523159
53601458.242751,0.86334848,-0.40605095
53701461.587344,0.88687348,-0.4002893
53801464.931938,0.88198525,-0.40085143
53901468.276531,0.85635906,-0.40248111
54001471.621124,0.87672287,-0.40760735
54101474.965718,0.85307455,-0.38467315
54201478.310311,0.84839612,-0.40905485
54301481.654905,0.87296182,-0.40685064
54401484.999498,0.86613762,-0.41530168
54501488.344092,0.85830313,-0.41367406
54601491.688685,0.85495949,-0.41866586
54701495.033279,0.85940695,-0.41710779
54801498.377872,0.86218876,-0.41562599
54901501.722466,0.87331992,-0.42041141
55001505.067059,0.86475396,-0.40604752
55101508.411653,0.86130506,-0.41149464
55201511.756246,0.84603369,-0.42903405
55301515.100839,0.84503049,-0.42458373
55401518.445433,0.88860267,-0.41346058
55501521.790026,0.87633461,-0.40519533
55601525.13462,0.86734354,-0.43320176
55701528.479213,0.84943783,-0.41065764
55801531.823807,0.8508144,-0.41825622
55901535.1684,0.86174095,-0.40456569
56001538.512994,0.84931386,-0.41394037
56101541.857587,0.87003094,-0.41198826
56201545.202181,0.86037552,-0.44167599
56301548.546774,0.85840309,-0.41613781
56401551.891368,0.88417876,-0.41155565
56501555.235961,0.84153533,-0.41838291
56601558.580555,0.85076201,-0.4421303
56701561.925148,0.85810745,-0.41177946
56801565.269741,0.88294727,-0.43019992
56901568.614335,0.84370476,-0.42482215
57001571.958928,0.84679204,-0.42513645
57101575.303522,0.87353539,-0.43522179
57201578.648115,0.86043173,-0.42677841
57301581.992709,0.86094427,-0.41515237
57401585.337302,0.87197775,-0.42344937
57501588.681896,0.85948455,-0.43494749
57601592.026489,0.84250152,-0.42111254
57701595.371083,0.8437773,-0.44201753
57801598.715676,0.85423636,-0.43319046
57901602.06027,0.85886073,-0.44189113
58001605.404863,0.84158796,-0.42227286
58101608.749457,0.85161328,-0.44057554
58201612.09405,0.85218841,-0.4445726
58301615.438643,0.85673082,-0.43991989
58401618.783237,0.85776538,-0.45129329
58501622.12783,0.84884322,-0.4346222
58601625.472424,0.85288978,-0.43694183
58701628.817017,0.85693759,-0.44690686
58801632.161611,0.83063853,-0.44193077
58901635.506204,0.83912885,-0.43803006
59001638.850798,0.83056039,-0.45367739
59101642.195391,0.84980053,-0.4353784
59201645.539985,0.84066725,-0.42527345
59301648.884578,0.84890682,-0.45065108
59401652.229172,0.8515088,-0.46166763
59501655.573765,0.83950818,-0.44736272
59601658.918358,0.84494478,-0.43739918
