!CSV A.01.01
!Agilent Technologies,N5227A,US51270345,A.09.80.20
!Agilent N5227A: A.09.80.20
!Date: Monday, November 26, 2018 16:11:54
!Source: Standard

BEGIN CH1_DATA
Freq(Hz),S12(REAL),S12(IMAG)
10000000,-0.004322316,0.053005658
10100003.344593,-0.023444513,-0.022361923
10200006.689187,0.020235784,-0.0042087277
10300010.03378,0.0063733803,0.059576258
10400013.378374,-0.021507118,-0.016489862
10500016.722967,-0.0098951515,0.012045175
10600020.067561,0.012143089,-0.023662455
10700023.412154,-0.043364596,-0.026388777
10800026.756748,0.014630559,-0.01215836
10900030.101341,-0.0014823293,-0.027253894
11000033.445935,0.019824514,-0.028033592
11100036.790528,-0.03100046,-0.0048271925
11200040.135122,0.014793533,-0.0072541134
11300043.479715,-0.014906753,-0.039463162
11400046.824309,0.025037223,-0.016453335
11500050.168902,0.011282298,-0.020773845
11600053.513495,0.010353044,0.0097516831
11700056.858089,0.027883142,0.0037692953
11800060.202682,0.015664054,-0.041003071
11900063.547276,0.0030579895,0.0011373737
12000066.891869,-0.024365531,0.017464299
12100070.236463,0.017159006,-0.017184112
12200073.581056,-0.0062136352,-0.026135849
12300076.92565,-0.011671788,0.027781269
12400080.270243,-0.0078774784,0.010441405
12500083.614837,0.011139552,0.021864627
12600086.95943,0.044193558,-0.034046665
12700090.304024,-0.00013851046,-0.014374336
12800093.648617,-0.02583248,0.022135861
12900096.99321,0.0025975332,0.020807803
13000100.337804,0.0042685894,-0.022440599
13100103.682397,-0.027203953,-0.0064116637
13200107.026991,-0.016886132,-0.02239782
13300110.371584,0.029755984,0.019934455
13400113.716178,-0.0099554472,0.050497327
13500117.060771,-0.012349577,-0.02141743
13600120.405365,-0.015738579,0.0083265565
13700123.749958,0.015787153,0.00475229
13800127.094552,0.0062585818,0.010075143
13900130.439145,0.0089308033,-0.020987226
14000133.783739,-0.032164954,0.008868333
14100137.128332,0.012896123,-0.0045694225
14200140.472926,0.036087006,-0.00564611
14300143.817519,-0.011310403,0.039709024
14400147.162112,-0.028353907,-0.0057072868
14500150.506706,-0.0038680865,-0.017710805
14600153.851299,0.0038506805,-0.0015855239
14700157.195893,-0.027525974,-0.00038720891
14800160.540486,0.02033611,-0.0055241566
14900163.88508,0.0020277326,-0.0041557029
15000167.229673,-0.0043435283,0.0024459541
15100170.574267,-0.012876993,0.0066295136
15200173.91886,-0.0085398229,0.012256291
15300177.263454,-0.020819623,-0.00047119966
15400180.608047,0.017303893,-0.0032834404
15500183.952641,-0.00046732542,0.0072598858
15600187.297234,-0.012493685,-0.040259946
15700190.641827,-0.0026267578,0.002982381
15800193.986421,-0.017622612,0.0073971027
15900197.331014,0.0037048117,-0.013853312
16000200.675608,-0.0093946746,0.015255921
16100204.020201,0.0080611948,-0.0068219895
16200207.364795,-0.018081555,-0.0061752312
16300210.709388,-0.00063625595,-0.030282019
16400214.053982,0.018654533,-0.0013273766
16500217.398575,0.011545327,0.0075131427
16600220.743169,0.015067348,0.02070976
16700224.087762,-0.021380607,-0.037178144
16800227.432356,-0.0018735202,0.0025317036
16900230.776949,0.0020528233,0.011279439
17000234.121543,0.0054011284,0.0019059669
17100237.466136,0.025940085,-0.014571783
17200240.810729,0.043956824,0.003461546
17300244.155323,0.0077496422,0.012776817
17400247.499916,-0.016603639,0.015589743
17500250.84451,0.014686244,-0.013086531
17600254.189103,0.013009826,0.0098446943
17700257.533697,0.0140917,0.023245594
17800260.87829,0.0018126604,-0.00036543314
17900264.222884,-0.0015471927,-0.017715557
18000267.567477,-0.0048716217,0.016464323
18100270.912071,-0.014610516,0.004040421
18200274.256664,0.014321755,-0.010207716
18300277.601258,-0.013336679,-0.0078719268
18400280.945851,-0.0050169909,0.010867758
18500284.290444,0.0045380234,0.0064265812
18600287.635038,-0.013791387,-0.011268025
18700290.979631,-0.016709916,0.0056937463
18800294.324225,0.00060309214,0.0069516855
18900297.668818,0.0053582154,-0.011010118
19000301.013412,0.016133144,0.0039148829
19100304.358005,-0.0093025723,-0.0039526308
19200307.702599,-0.012038197,0.028957361
19300311.047192,0.004584597,-0.0033532535
19400314.391786,0.0023388469,0.0034729918
19500317.736379,-0.006707544,-0.011835622
19600321.080973,0.00019489879,0.0044769258
19700324.425566,0.0068020052,0.0097883707
19800327.77016,0.0033196339,-0.002835308
19900331.114753,-0.0066484716,-0.017505137
20000334.459346,0.012382137,0.017082594
20100337.80394,0.00094994454,0.013898032
20200341.148533,0.0023853804,0.012463006
20300344.493127,-0.006183174,0.017168488
20400347.83772,0.017131539,0.0077599403
20500351.182314,0.020415859,0.012895902
20600354.526907,-0.0055804881,-0.0040096077
20700357.871501,0.0091139674,-0.0087552462
20800361.216094,0.0027742535,-0.0030156956
20900364.560688,0.0011841819,-0.0076506585
21000367.905281,0.00049614214,0.0063914633
21100371.249875,0.013314656,-0.013761567
21200374.594468,0.0088155726,0.00067532517
21300377.939062,-0.010706036,0.0044807391
21400381.283655,0.018939018,-0.0049062739
21500384.628248,0.011369993,0.013995232
21600387.972842,0.0059029758,-0.0046950383
21700391.317435,0.0068491567,0.0045264768
21800394.662029,0.0051300572,-0.002417892
21900398.006622,0.012879923,-0.0043590926
22000401.351216,-0.0025990983,0.0023088895
22100404.695809,0.0055830162,0.0074928049
22200408.040403,-0.0011922978,0.0074762413
22300411.384996,0.012170316,0.0066174702
22400414.72959,-0.0089486372,-0.0038253467
22500418.074183,0.0053755967,0.0020926641
22600421.418777,-0.0085216137,-0.00068956136
22700424.76337,0.00019479441,-0.00079312391
22800428.107963,-0.0023198118,-0.0092079956
22900431.452557,0.0051301168,0.0077090263
23000434.79715,0.00022565064,0.0054974421
23100438.141744,0.0041986643,-0.00080887222
23200441.486337,0.0077487403,0.0094567267
23300444.830931,-0.0016249969,0.01423399
23400448.175524,-0.0040173638,-0.021449963
23500451.520118,0.012144432,-0.0019071134
23600454.864711,-0.0039646914,-0.0039127604
23700458.209305,-0.0084695145,-0.0025625983
23800461.553898,0.010966722,-0.0036054568
23900464.898492,0.0058816145,-0.0027988527
24000468.243085,-0.0039124419,0.007199239
24100471.587679,0.002635051,-0.0018915375
24200474.932272,0.00093717652,0.003803194
24300478.276865,-0.0064748102,-0.0057245749
24400481.621459,-0.0055803861,-0.0070676086
24500484.966052,-0.0018289167,-0.0026071989
24600488.310646,0.0026944734,-0.010954808
24700491.655239,0.0097700413,0.0015656763
24800494.999833,0.013508349,-0.00047011665
24900498.344426,0.0014737884,0.00037317965
25000501.68902,-0.0058585573,0.010343459
25100505.033613,0.0076242294,0.0086804312
25200508.378207,0.011384724,0.0036720363
25300511.7228,0.013713469,0.0039421539
25400515.067394,0.0068399217,0.0028003294
25500518.411987,-0.0071982741,0.0046349722
25600521.75658,-0.013322135,0.0097708153
25700525.101174,-0.0070292214,-0.0087017193
25800528.445767,-0.0026326505,-0.00099060417
25900531.790361,-0.0064143855,-0.0085467976
26000535.134954,0.01647396,-0.010846409
26100538.479548,-0.0053664371,-0.0017500452
26200541.824141,0.0026108911,-0.0020866187
26300545.168735,0.0068942402,-0.0024130209
26400548.513328,0.011089116,0.010856469
26500551.857922,0.010000935,-0.0080280956
26600555.202515,0.015471345,0.0032366973
26700558.547109,-0.0075824163,0.0024402139
26800561.891702,0.001390824,0.0078886114
26900565.236296,0.0075602042,0.0071457243
27000568.580889,0.0025707132,-0.0034641761
27100571.925482,0.0014330902,0.0026477012
27200575.270076,0.0036001564,0.005905591
27300578.614669,0.0010230305,-0.0011370786
27400581.959263,-0.012304026,-0.0027966392
27500585.303856,0.0008442548,-0.0039886856
27600588.64845,0.0014691645,-0.002413139
27700591.993043,-0.016552944,0.00070340181
27800595.337637,0.01707205,0.0069793095
27900598.68223,0.0027180251,0.013537843
28000602.026824,-0.0041705859,-0.0037614736
28100605.371417,-0.010612276,0.010267465
28200608.716011,0.0034663619,-0.0018431889
28300612.060604,0.0072626607,-0.0029642861
28400615.405197,-0.0091697378,-0.0055433055
28500618.749791,0.0057252157,-0.0017788879
28600622.094384,0.0082141627,-0.0020763387
28700625.438978,-0.0027094963,0.0067258361
28800628.783571,0.0052515906,0.010862093
28900632.128165,0.00015260618,0.0024235335
29000635.472758,-0.0018510888,0.0015270372
29100638.817352,0.0044629248,0.00026553567
29200642.161945,-0.0067895264,0.0042971168
29300645.506539,0.0090429625,-0.0016892924
29400648.851132,0.0052489964,-0.0035046441
29500652.195726,0.00069562986,0.001039122
29600655.540319,-0.0078826984,-0.0059728194
29700658.884913,0.0034580075,-0.0072488561
29800662.229506,0.0045028999,0.0070696962
29900665.574099,0.0010014914,0.0099025881
30000668.918693,0.00043999756,-0.00026533913
30100672.263286,2.8458276e-006,-0.00024224225
30200675.60788,0.0044846074,0.0087825498
30300678.952473,0.0079475306,-0.0063087917
30400682.297067,0.0060488787,-0.0010994638
30500685.64166,0.0044542584,-0.0011886841
30600688.986254,0.0063402825,-0.0013595017
30700692.330847,-0.00025985192,0.0034113515
30800695.675441,0.0090325782,-0.00053079246
30900699.020034,0.0084700892,0.0059903963
31000702.364628,0.0023452465,0.0024461688
31100705.709221,0.0096186446,0.0076414407
31200709.053815,0.0042236531,-0.00086196396
31300712.398408,0.0068657543,0.0075538931
31400715.743001,0.0061184824,0.00079026638
31500719.087595,0.0013364911,0.00087661704
31600722.432188,0.0017513351,0.0080798566
31700725.776782,0.0073390813,0.0083964765
31800729.121375,0.0042354218,-0.00077035045
31900732.465969,0.0069599738,-0.01067558
32000735.810562,-0.0056848116,0.0012295198
32100739.155156,0.0027768463,0.008515182
32200742.499749,0.0099388165,0.00070267648
32300745.844343,0.011265026,0.0027980492
32400749.188936,0.0019653698,-0.004837851
32500752.53353,0.0094498973,-0.0091054104
32600755.878123,0.0030428066,0.00084326544
32700759.222716,0.0098435609,0.0033752068
32800762.56731,0.0010399973,0.0045910771
32900765.911903,-0.0014839587,0.0051684561
33000769.256497,0.0041135508,0.0098023862
33100772.60109,0.002035151,0.008898735
33200775.945684,-0.0010608652,0.0079093464
33300779.290277,0.0073209731,0.002385929
33400782.634871,0.0055589974,0.003290066
33500785.979464,0.0085852491,-0.0041630021
33600789.324058,0.0057917214,0.0087906206
33700792.668651,0.0036176185,0.00073113176
33800796.013245,0.0017670912,0.0027291712
33900799.357838,0.0054614712,0.0088401968
34000802.702432,0.0010989273,-0.0018654864
34100806.047025,0.006794435,-0.0027248347
34200809.391618,0.0049260305,-0.0014320778
34300812.736212,0.0028553281,0.001983773
34400816.080805,0.0087154964,0.0013750414
34500819.425399,0.0065333187,0.0035540294
34600822.769992,0.0046743541,-0.0018728548
34700826.114586,0.010050351,0.0063593038
34800829.459179,-0.00030558559,0.0067346459
34900832.803773,0.0023499504,-0.0010528886
35000836.148366,0.0043629906,0.0056906799
35100839.49296,0.010510421,-0.0014235612
35200842.837553,0.0068884799,0.0016368983
35300846.182147,0.00068524346,-0.00035423948
35400849.52674,0.0052842847,0.0043720934
35500852.871333,-0.0016305447,0.0027715012
35600856.215927,-0.0080233766,0.00074227876
35700859.56052,0.0090224314,-0.002892809
35800862.905114,0.0029506097,-0.002074729
35900866.249707,-0.0026974827,0.0041185366
36000869.594301,0.00095887086,-0.001663011
36100872.938894,-0.0028752566,0.008164579
36200876.283488,0.00092609681,0.0001288741
36300879.628081,0.0050096652,-0.0022966533
36400882.972675,0.012337234,1.0597916e-005
36500886.317268,-0.0034506449,0.0042686043
36600889.661862,-0.0043349783,0.0038200102
36700893.006455,0.0050493809,0.005761778
36800896.351049,-0.0059226886,0.0049958546
36900899.695642,0.0081278887,-0.0051343259
37000903.040235,0.0021697141,0.0042317193
37100906.384829,0.0055583622,0.0021693115
37200909.729422,0.014034156,-0.0018687828
37300913.074016,0.007829261,0.0023434975
37400916.418609,0.0017692987,-0.0007566018
37500919.763203,0.0086908629,-0.0021189325
37600923.107796,-9.5794539e-006,-0.0028640945
37700926.45239,0.0031888462,0.0032325548
37800929.796983,0.0036271722,-0.0015104986
37900933.141577,0.0031583703,0.00065686728
38000936.48617,0.0025592034,0.0019954178
38100939.830764,0.0056767818,-0.0020039342
38200943.175357,0.0078204712,-0.0065059722
38300946.51995,-0.00011237038,0.00092357083
38400949.864544,0.008254284,0.0087354314
38500953.209137,0.0025801254,-0.00084380672
38600956.553731,0.0048591467,0.0030968082
38700959.898324,0.0042067911,0.0014746026
38800963.242918,0.0063621374,0.00012683665
38900966.587511,0.00433008,-0.00014337653
39000969.932105,0.0033483524,0.010451465
39100973.276698,0.0066185244,-0.0061948937
39200976.621292,0.0037090275,0.0054156957
39300979.965885,0.0011391049,0.0019540421
39400983.310479,0.0052451319,0.0033156688
39500986.655072,0.0058042021,-0.0021699527
39600989.999666,0.0043251277,0.0038945291
39700993.344259,0.0077256537,0.00047818857
39800996.688852,0.00094124977,-1.4303145e-005
39901000.033446,0.0074819322,-0.0017880768
40001003.378039,0.0084556742,0.000932745
40101006.722633,-0.00067374919,-0.00095483538
40201010.067226,-0.00038913815,0.0070769852
40301013.41182,0.0054944921,0.0033736771
40401016.756413,0.00027452694,-0.0049258461
40501020.101007,-0.002935119,-0.0095584653
40601023.4456,0.0066326032,-0.0025085073
40701026.790194,0.00048618575,-0.0013715588
40801030.134787,0.0088942386,-0.0053745462
40901033.479381,0.005614141,-0.0038765348
41001036.823974,0.0017282728,0.00067345781
41101040.168568,0.0084202588,0.0012455389
41201043.513161,-0.0014021576,-0.0029082343
41301046.857754,0.0040759649,0.0017149702
41401050.202348,0.0037062124,0.0029119959
41501053.546941,0.0035723376,0.0012180352
41601056.891535,0.0082113426,-0.00083741779
41701060.236128,0.0029412683,0.0045095142
41801063.580722,0.00084837951,0.0020291249
41901066.925315,0.0072592939,-0.0042642113
42001070.269909,0.0027630741,-0.0027532075
42101073.614502,0.0046318634,0.0021037159
42201076.959096,0.0058727036,0.0021866227
42301080.303689,0.0050663045,0.00524831
42401083.648283,0.0035260464,0.0034059826
42501086.992876,0.0066719395,-0.0034953731
42601090.337469,0.0067311791,-0.0037144383
42701093.682063,0.0072791744,-0.0017436454
42801097.026656,0.0076628546,-0.0012000668
42901100.37125,0.009401123,-0.0053046318
43001103.715843,0.0048960587,-0.0012190718
43101107.060437,0.0014189665,0.0011672727
43201110.40503,0.00039650244,0.003068869
43301113.749624,0.003785488,0.0022568291
43401117.094217,0.010656073,0.005899705
43501120.438811,-0.0037116152,-0.0031638006
43601123.783404,0.0044331695,-0.0015333975
43701127.127998,0.0058619822,-0.00059166178
43801130.472591,0.0039541181,0.0015534112
43901133.817185,0.011707384,0.0013775213
44001137.161778,0.0025305892,0.0027788687
44101140.506371,0.0030130292,0.0052565723
44201143.850965,-0.0017852046,-0.0043182652
44301147.195558,0.0073041869,-0.0026675875
44401150.540152,0.0057199276,0.0042936108
44501153.884745,0.0050158338,-0.0025651881
44601157.229339,0.0042643393,0.0046027587
44701160.573932,0.0081779407,-0.0006751591
44801163.918526,0.0019692178,0.0013113887
44901167.263119,0.0073537733,-0.00044900639
45001170.607713,6.8467443e-006,-0.00049611804
45101173.952306,-0.0047513382,0.0017090174
45201177.2969,-0.0026917295,-0.0063382681
45301180.641493,0.0038673542,0.0013823445
45401183.986086,0.0023176463,0.0042168093
45501187.33068,0.0093872044,-0.0028616122
45601190.675273,0.00091339939,-0.0020115562
45701194.019867,0.0052521885,0.0038474824
45801197.36446,0.0014003941,-2.5144156e-005
45901200.709054,0.0027189406,0.0022210435
46001204.053647,0.0070077875,-0.0034779587
46101207.398241,0.0026660436,-0.0050702263
46201210.742834,0.0031817483,-0.0018180157
46301214.087428,0.0022430555,0.0018397693
46401217.432021,0.0060627395,-9.2881295e-005
46501220.776615,0.0015310663,-0.001232011
46601224.121208,0.0094689792,-0.002958477
46701227.465802,0.0067064818,-0.0080929017
46801230.810395,0.0095048463,-0.0029751679
46901234.154988,0.0019003028,0.0023300399
47001237.499582,0.0057044667,-0.001429223
47101240.844175,0.0011125105,-0.0030581818
47201244.188769,0.0073593734,-0.0052858759
47301247.533362,-0.00032115856,-0.0055189123
47401250.877956,0.0045780828,0.00084443361
47501254.222549,0.0058137421,0.009194837
47601257.567143,0.0058499128,-0.0027567053
47701260.911736,0.0057743066,0.0013147485
47801264.25633,0.0039028199,5.5505821e-005
47901267.600923,0.0031880713,0.00093453866
48001270.945517,0.0036728643,8.2053884e-005
48101274.29011,0.0071556913,-0.0044244891
48201277.634704,0.0063423994,-0.0025322933
48301280.979297,0.0058113593,0.0019294099
48401284.32389,0.0030675489,0.0023177203
48501287.668484,0.0019383361,-0.00069840765
48601291.013077,-0.002301693,-0.0021695371
48701294.357671,0.005280314,-0.0032883333
48801297.702264,-0.0001434062,0.0017048586
48901301.046858,0.003533504,0.0015268266
49001304.391451,0.0026576626,-0.0029679346
49101307.736045,0.0013508899,-0.0073500937
49201311.080638,0.0070285737,-0.0067202174
49301314.425232,0.0071517937,-0.0048008603
49401317.769825,-0.0010835106,-0.00093757949
49501321.114419,0.0031032546,0.002848617
49601324.459012,0.0071634501,-0.007400251
49701327.803605,0.0093381815,-0.0024497998
49801331.148199,0.0033201135,-0.0037887443
49901334.492792,0.0056666643,-0.0014531253
50001337.837386,0.0040219803,0.0010857468
50101341.181979,0.0074375379,0.0020034851
50201344.526573,0.0013737727,-0.0041390387
50301347.871166,0.00072447537,-0.0013654171
50401351.21576,0.0036666566,0.001121875
50501354.560353,0.010270335,-0.0033935094
50601357.904947,0.0060792281,0.0022788874
50701361.24954,0.0094660399,-0.0058689001
50801364.594134,-0.0024955077,-0.0030504123
50901367.938727,0.0084352791,-0.0034477662
51001371.283321,0.0023989084,-0.0063681644
51101374.627914,0.0027036534,-0.0026833101
51201377.972507,0.0069137001,-0.00080258388
51301381.317101,0.0065038414,-0.0015218103
51401384.661694,0.0038572887,-0.0028363559
51501388.006288,0.0027510116,-0.007204507
51601391.350881,0.0012640513,-0.0044114799
51701394.695475,0.01143882,-0.0015826665
51801398.040068,0.0033643043,-0.0079615507
51901401.384662,0.0059117912,-0.0057713152
52001404.729255,0.0086446712,-0.0017490889
52101408.073849,0.0015474401,-0.0050992873
52201411.418442,0.0056994995,-0.0037156101
52301414.763036,0.00256445,-0.00081872509
52401418.107629,0.0094188852,-0.00046313956
52501421.452222,0.0028871726,-0.0061365576
52601424.796816,-0.00045104962,-0.0064236554
52701428.141409,0.0076409834,-0.004845615
52801431.486003,0.002857218,-0.00308997
52901434.830596,-0.00030681238,-0.0034894757
53001438.17519,0.00047048696,-0.011801795
53101441.519783,0.00093327835,0.00011521696
53201444.864377,0.0048826998,0.0040083197
53301448.20897,-0.0024506075,0.0078215143
53401451.553564,0.0042938692,-0.0034687154
53501454.898157,0.016134592,-0.0058811842
53601458.242751,0.015752351,-0.012929503
53701461.587344,0.00093419419,0.0015414901
53801464.931938,-0.00061931455,-0.0042186384
53901468.276531,-0.0058849873,0.0010000364
54001471.621124,0.0063017057,-0.0022985407
54101474.965718,0.0060530994,0.000298183
54201478.310311,0.00012279642,-0.0011599255
54301481.654905,-0.0055851243,-0.0035634404
54401484.999498,0.00043494234,0.0019493452
54501488.344092,0.0050335545,-0.0083714314
54601491.688685,0.0045337877,-0.0022598507
54701495.033279,-0.0032208811,0.0093444167
54801498.377872,-0.0021535845,-0.00080201629
54901501.722466,0.00043881146,-0.0054593389
55001505.067059,0.0081098173,-0.00658254
55101508.411653,0.013446448,-0.0070478553
55201511.756246,0.0086026238,-0.0065256385
55301515.100839,0.0059319306,-0.0078559564
55401518.445433,-0.0025966868,0.0057190782
55501521.790026,0.0067217797,-0.0082619917
