!CSV A.01.01
!Agilent Technologies,N5227A,US51270345,A.09.80.20
!Agilent N5227A: A.09.80.20
!Date: Monday, November 26, 2018 16:16:12
!Source: Standard

BEGIN CH1_DATA
Freq(Hz),S22(REAL),S22(IMAG)
10000000,0.75926942,0.0023984627
10100003.344593,0.83748549,-0.001347507
10200006.689187,0.8027184,-0.046803895
10300010.03378,0.85313237,-0.14889675
10400013.378374,0.81343991,-0.065406993
10500016.722967,0.69393075,-0.034198407
10600020.067561,0.74178195,-0.056945723
10700023.412154,0.79546165,-0.072317272
10800026.756748,0.78523868,-0.079577006
10900030.101341,0.75850856,-0.10778722
11000033.445935,0.7769956,-0.061311692
11100036.790528,0.79993224,-0.12753306
11200040.135122,0.77560622,-0.046324093
11300043.479715,0.75917637,-0.13494156
11400046.824309,0.7830447,-0.13110006
11500050.168902,0.64844841,-0.074533679
11600053.513495,0.7417866,-0.12219752
11700056.858089,0.73141611,-0.067196861
11800060.202682,0.68964392,-0.19574708
11900063.547276,0.70142078,-0.17926757
12000066.891869,0.76844537,-0.12298942
12100070.236463,0.72537249,-0.097198389
12200073.581056,0.72831923,-0.10861386
12300076.92565,0.67005414,-0.095531687
12400080.270243,0.71170276,-0.19973177
12500083.614837,0.72125852,-0.11938944
12600086.95943,0.67666519,-0.12522432
12700090.304024,0.70766693,-0.13404357
12800093.648617,0.60273719,-0.099361762
12900096.99321,0.5914402,-0.05992895
13000100.337804,0.51095432,0.019717449
13100103.682397,0.60276151,0.11162256
13200107.026991,0.73675185,0.049729113
13300110.371584,0.83123815,-0.050520565
13400113.716178,0.80367351,-0.071342781
13500117.060771,0.74730235,-0.11319593
13600120.405365,0.74664843,-0.08630491
13700123.749958,0.78172499,-0.061358362
13800127.094552,0.74072689,-0.094554126
13900130.439145,0.70597458,-0.12048119
14000133.783739,0.73151207,-0.15544488
14100137.128332,0.80177873,-0.17378704
14200140.472926,0.75102156,-0.12948748
14300143.817519,0.72229582,-0.084996007
14400147.162112,0.71775752,-0.10478365
14500150.506706,0.75647724,-0.058884911
14600153.851299,0.69685477,-0.12448359
14700157.195893,0.70401675,-0.065109208
14800160.540486,0.68241233,-0.084296428
14900163.88508,0.71764237,-0.12129904
15000167.229673,0.72938544,-0.11962768
15100170.574267,0.70590866,-0.13058645
15200173.91886,0.73608696,-0.097382322
15300177.263454,0.70110935,-0.13045155
15400180.608047,0.73236674,-0.15042695
15500183.952641,0.68519986,-0.16932802
15600187.297234,0.66905695,-0.14227489
15700190.641827,0.66594988,-0.18966618
15800193.986421,0.69908482,-0.16380572
15900197.331014,0.67883885,-0.15554622
16000200.675608,0.65767735,-0.12939993
16100204.020201,0.6637615,-0.13139971
16200207.364795,0.62984759,-0.076849572
16300210.709388,0.56670541,0.0039749979
16400214.053982,0.69798434,0.047166388
16500217.398575,0.75592232,0.023560228
16600220.743169,0.76310617,-0.029349275
16700224.087762,0.81059515,-0.073629685
16800227.432356,0.79337269,-0.064895079
16900230.776949,0.76585901,-0.13267699
17000234.121543,0.77011985,-0.076740175
17100237.466136,0.78549182,-0.097214505
17200240.810729,0.7461549,-0.13381547
17300244.155323,0.75574976,-0.12125208
17400247.499916,0.73433459,-0.06846258
17500250.84451,0.72703916,-0.14459817
17600254.189103,0.75550425,-0.074244291
17700257.533697,0.6868974,-0.12998557
17800260.87829,0.69090891,-0.11633553
17900264.222884,0.70688963,-0.13637197
18000267.567477,0.7645539,-0.17698099
18100270.912071,0.69170773,-0.18410951
18200274.256664,0.727166,-0.16679965
18300277.601258,0.75416875,-0.13804843
18400280.945851,0.71274781,-0.10898933
18500284.290444,0.71855658,-0.1073636
18600287.635038,0.70280766,-0.14468244
18700290.979631,0.68825144,-0.09062843
18800294.324225,0.71348298,-0.11531278
18900297.668818,0.69328868,-0.14232391
19000301.013412,0.71186286,-0.11547733
19100304.358005,0.70794892,-0.14112361
19200307.702599,0.71899658,-0.17305969
19300311.047192,0.66195118,-0.14909561
19400314.391786,0.66482443,-0.11999916
19500317.736379,0.68441546,-0.10208128
19600321.080973,0.68973887,-0.097061075
19700324.425566,0.70039988,-0.086280502
19800327.77016,0.71756941,-0.090271808
19900331.114753,0.78252906,-0.085825115
20000334.459346,0.74636137,-0.10160951
20100337.80394,0.73400521,-0.14326069
20200341.148533,0.73073715,-0.11844988
20300344.493127,0.75368798,-0.10327235
20400347.83772,0.76185006,-0.1021351
20500351.182314,0.73277617,-0.17301257
20600354.526907,0.71399575,-0.14783482
20700357.871501,0.74243891,-0.17009626
20800361.216094,0.69760168,-0.11432023
20900364.560688,0.75080317,-0.148214
21000367.905281,0.71305662,-0.11596426
21100371.249875,0.69966549,-0.12416617
21200374.594468,0.77769166,-0.10455856
21300377.939062,0.75567347,-0.15545796
21400381.283655,0.72967666,-0.14993246
21500384.628248,0.72126365,-0.11884421
21600387.972842,0.71663833,-0.14038895
21700391.317435,0.7062211,-0.14559883
21800394.662029,0.68318737,-0.15616912
21900398.006622,0.70254773,-0.19669054
22000401.351216,0.70308185,-0.1484731
22100404.695809,0.71229833,-0.2074049
22200408.040403,0.7058571,-0.16210815
22300411.384996,0.71054214,-0.16080916
22400414.72959,0.71477503,-0.13995467
22500418.074183,0.6945098,-0.13916938
22600421.418777,0.68735993,-0.1483576
22700424.76337,0.68980139,-0.1167568
22800428.107963,0.6691978,-0.117046
22900431.452557,0.75028181,-0.15060964
23000434.79715,0.73047543,-0.12435804
23100438.141744,0.74160349,-0.13506891
23200441.486337,0.72565341,-0.1202471
23300444.830931,0.71073711,-0.12260973
23400448.175524,0.72007841,-0.1446145
23500451.520118,0.72690177,-0.15979996
23600454.864711,0.71692204,-0.11687413
23700458.209305,0.77083933,-0.138303
23800461.553898,0.73038548,-0.1409433
23900464.898492,0.73492688,-0.15490532
24000468.243085,0.71566159,-0.13483228
24100471.587679,0.7038306,-0.16624521
24200474.932272,0.725842,-0.18310459
24300478.276865,0.72986442,-0.18069659
24400481.621459,0.7067315,-0.16254149
24500484.966052,0.70433992,-0.16214611
24600488.310646,0.72810245,-0.13792293
24700491.655239,0.72196108,-0.17469585
24800494.999833,0.72083741,-0.18484905
24900498.344426,0.72241676,-0.17093585
25000501.68902,0.70861787,-0.14820804
25100505.033613,0.71768373,-0.17969467
25200508.378207,0.69913387,-0.17194344
25300511.7228,0.73392916,-0.16834821
25400515.067394,0.71071988,-0.15880226
25500518.411987,0.714127,-0.18823519
25600521.75658,0.68391818,-0.16994508
25700525.101174,0.72668654,-0.16624367
25800528.445767,0.68504643,-0.17153861
25900531.790361,0.71633542,-0.1729372
26000535.134954,0.66788501,-0.16843919
26100538.479548,0.67915469,-0.15361764
26200541.824141,0.69878972,-0.17311291
26300545.168735,0.68282634,-0.16625626
26400548.513328,0.67677516,-0.18500181
26500551.857922,0.70668679,-0.16317755
26600555.202515,0.71308249,-0.17284168
26700558.547109,0.7213015,-0.17289224
26800561.891702,0.74322337,-0.1695403
26900565.236296,0.73816735,-0.17756563
27000568.580889,0.71034712,-0.16504008
27100571.925482,0.73116964,-0.17710328
27200575.270076,0.72137219,-0.19036819
27300578.614669,0.73123533,-0.16701445
27400581.959263,0.7060796,-0.18752989
27500585.303856,0.7255969,-0.19897084
27600588.64845,0.72718197,-0.1815207
27700591.993043,0.72221005,-0.19146328
27800595.337637,0.7162655,-0.18434969
27900598.68223,0.71969914,-0.18606132
28000602.026824,0.70919335,-0.16467376
28100605.371417,0.7256127,-0.22410911
28200608.716011,0.69774145,-0.17983063
28300612.060604,0.7400316,-0.2151019
28400615.405197,0.73330331,-0.18423854
28500618.749791,0.7135151,-0.18192755
28600622.094384,0.69719899,-0.19230317
28700625.438978,0.72407639,-0.19349039
28800628.783571,0.72048903,-0.20255741
28900632.128165,0.69625199,-0.21430852
29000635.472758,0.71582019,-0.21507415
29100638.817352,0.70572209,-0.20522654
29200642.161945,0.70441705,-0.19462034
29300645.506539,0.72850913,-0.19516151
29400648.851132,0.70495397,-0.18625106
29500652.195726,0.69938403,-0.18991907
29600655.540319,0.68553585,-0.21591496
29700658.884913,0.70561236,-0.20199594
29800662.229506,0.71816999,-0.20472842
29900665.574099,0.72352964,-0.16699743
30000668.918693,0.71637619,-0.18083812
30100672.263286,0.71976662,-0.20035426
30200675.60788,0.71007329,-0.19732679
30300678.952473,0.72731519,-0.19826251
30400682.297067,0.72845834,-0.1783983
30500685.64166,0.72409433,-0.21024838
30600688.986254,0.70011163,-0.22556852
30700692.330847,0.70241791,-0.20033956
30800695.675441,0.71152049,-0.19939394
30900699.020034,0.70876801,-0.21835536
31000702.364628,0.71992767,-0.18902498
31100705.709221,0.71888548,-0.18544304
31200709.053815,0.72873962,-0.22495319
31300712.398408,0.69587845,-0.21110146
31400715.743001,0.7171793,-0.203566
31500719.087595,0.715352,-0.22424902
31600722.432188,0.7107718,-0.20562629
31700725.776782,0.70318127,-0.21134205
31800729.121375,0.71966106,-0.21049817
31900732.465969,0.70606995,-0.23046155
32000735.810562,0.71881878,-0.21212117
32100739.155156,0.71305645,-0.21846934
32200742.499749,0.69846994,-0.21929793
32300745.844343,0.69774038,-0.21368463
32400749.188936,0.70582163,-0.20360379
32500752.53353,0.69689935,-0.22001646
32600755.878123,0.7065568,-0.21019524
32700759.222716,0.70681661,-0.21260966
32800762.56731,0.7006368,-0.20469984
32900765.911903,0.6957823,-0.21276021
33000769.256497,0.69188273,-0.19363992
33100772.60109,0.71046042,-0.20896778
33200775.945684,0.70562792,-0.20957768
33300779.290277,0.711119,-0.21767497
33400782.634871,0.69866389,-0.21021375
33500785.979464,0.7158162,-0.21831536
33600789.324058,0.71429604,-0.22889288
33700792.668651,0.71024925,-0.21794847
33800796.013245,0.71884871,-0.22945079
33900799.357838,0.72486275,-0.22850244
34000802.702432,0.70651132,-0.22040078
34100806.047025,0.70740211,-0.22164777
34200809.391618,0.69937766,-0.23930562
34300812.736212,0.71409428,-0.23932965
34400816.080805,0.68615139,-0.23590051
34500819.425399,0.70254648,-0.23240712
34600822.769992,0.69981337,-0.22416554
34700826.114586,0.70475715,-0.23032635
34800829.459179,0.70930129,-0.23351319
34900832.803773,0.70814186,-0.23460069
35000836.148366,0.70995659,-0.23412508
35100839.49296,0.70126128,-0.22741845
35200842.837553,0.70779669,-0.24200785
35300846.182147,0.69669652,-0.23491767
35400849.52674,0.70010608,-0.2282206
35500852.871333,0.70219404,-0.23769975
35600856.215927,0.6934523,-0.23867054
35700859.56052,0.70759213,-0.2360363
35800862.905114,0.69409412,-0.24295761
35900866.249707,0.70066464,-0.23424545
36000869.594301,0.70437896,-0.2531805
36100872.938894,0.68973929,-0.24310984
36200876.283488,0.70882887,-0.24154308
36300879.628081,0.6983155,-0.23830326
36400882.972675,0.70613289,-0.22745505
36500886.317268,0.70952338,-0.23770736
36600889.661862,0.71115583,-0.23865113
36700893.006455,0.68937063,-0.23608245
36800896.351049,0.69400567,-0.25435108
36900899.695642,0.70033824,-0.24065368
37000903.040235,0.69853193,-0.24483074
37100906.384829,0.69815272,-0.24303389
37200909.729422,0.7000522,-0.24473824
37300913.074016,0.69723988,-0.25637725
37400916.418609,0.70566469,-0.2554976
37500919.763203,0.69931227,-0.24040352
37600923.107796,0.70560825,-0.23658778
37700926.45239,0.69556105,-0.24263225
37800929.796983,0.69796145,-0.23828506
37900933.141577,0.70504028,-0.25437874
38000936.48617,0.68552464,-0.25731561
38100939.830764,0.69167829,-0.26328915
38200943.175357,0.69511425,-0.24654278
38300946.51995,0.6880995,-0.25427786
38400949.864544,0.69205326,-0.25131735
38500953.209137,0.69686252,-0.25053215
38600956.553731,0.69149059,-0.24202053
38700959.898324,0.6965512,-0.26418647
38800963.242918,0.6964972,-0.26118964
38900966.587511,0.68459392,-0.25674796
39000969.932105,0.68646216,-0.25598904
39100973.276698,0.69335997,-0.26141518
39200976.621292,0.68606776,-0.25728399
39300979.965885,0.69965363,-0.26563504
39400983.310479,0.69197625,-0.25191307
39500986.655072,0.69370133,-0.26445419
39600989.999666,0.69112182,-0.25895131
39700993.344259,0.69681799,-0.26212949
39800996.688852,0.69468266,-0.26239046
39901000.033446,0.69929987,-0.26309705
40001003.378039,0.69457364,-0.27123275
40101006.722633,0.69312626,-0.2611118
40201010.067226,0.68023229,-0.25374806
40301013.41182,0.69352949,-0.27175808
40401016.756413,0.69365764,-0.27494183
40501020.101007,0.69485712,-0.27171201
40601023.4456,0.69151658,-0.26917714
40701026.790194,0.68919498,-0.2677415
40801030.134787,0.69858605,-0.27328852
40901033.479381,0.69258785,-0.27256837
41001036.823974,0.6962415,-0.26189774
41101040.168568,0.69510216,-0.27336341
41201043.513161,0.69753689,-0.28507552
41301046.857754,0.69464743,-0.26739511
41401050.202348,0.69622934,-0.27266929
41501053.546941,0.68689543,-0.28097638
41601056.891535,0.69484335,-0.27888295
41701060.236128,0.67825156,-0.28100413
41801063.580722,0.68673819,-0.27172461
41901066.925315,0.69052917,-0.27514091
42001070.269909,0.69094658,-0.27145001
42101073.614502,0.68880761,-0.28665325
42201076.959096,0.69431174,-0.28529415
42301080.303689,0.68711191,-0.27311641
42401083.648283,0.67676908,-0.29316354
42501086.992876,0.67734832,-0.2872127
42601090.337469,0.67955405,-0.28979641
42701093.682063,0.68119675,-0.27830243
42801097.026656,0.68233407,-0.27725637
42901100.37125,0.67298156,-0.28470159
43001103.715843,0.68680274,-0.27959391
43101107.060437,0.68694663,-0.28254306
43201110.40503,0.68766129,-0.29028106
43301113.749624,0.67774165,-0.27631208
43401117.094217,0.68558121,-0.28597468
43501120.438811,0.68390721,-0.29230496
43601123.783404,0.68650818,-0.27802047
43701127.127998,0.68383962,-0.28441304
43801130.472591,0.68440545,-0.28588343
43901133.817185,0.67999464,-0.2850534
44001137.161778,0.68622363,-0.28668642
44101140.506371,0.67730784,-0.28877157
44201143.850965,0.68214923,-0.28966492
44301147.195558,0.67781836,-0.29038635
44401150.540152,0.68755829,-0.29589877
44501153.884745,0.68566459,-0.2884967
44601157.229339,0.68116879,-0.29355347
44701160.573932,0.6785925,-0.30705741
44801163.918526,0.67858982,-0.29136541
44901167.263119,0.68315375,-0.28367627
45001170.607713,0.67505801,-0.29015553
45101173.952306,0.66780853,-0.29298407
45201177.2969,0.69058329,-0.30050766
45301180.641493,0.67328912,-0.30367416
45401183.986086,0.69280136,-0.31421578
45501187.33068,0.67575008,-0.30095595
45601190.675273,0.67244458,-0.29667813
45701194.019867,0.67869318,-0.29929039
45801197.36446,0.68774641,-0.29946718
45901200.709054,0.67174375,-0.30681828
46001204.053647,0.67392719,-0.30789697
46101207.398241,0.67448103,-0.30884749
46201210.742834,0.67658275,-0.30396378
46301214.087428,0.6680032,-0.29585877
46401217.432021,0.68674731,-0.30310327
46501220.776615,0.6788848,-0.30883959
46601224.121208,0.67493773,-0.30956542
46701227.465802,0.67418194,-0.30430618
46801230.810395,0.66926414,-0.3061662
46901234.154988,0.67236185,-0.2982254
47001237.499582,0.67003471,-0.30951303
47101240.844175,0.6788972,-0.3058123
47201244.188769,0.67618662,-0.30706888
47301247.533362,0.68001515,-0.31388098
47401250.877956,0.67399412,-0.31932285
47501254.222549,0.67878205,-0.31681812
47601257.567143,0.67386949,-0.31038067
47701260.911736,0.67409647,-0.31544381
47801264.25633,0.67166722,-0.32327187
47901267.600923,0.67130792,-0.31545591
48001270.945517,0.67598635,-0.31334209
48101274.29011,0.67078787,-0.31529269
48201277.634704,0.66405797,-0.32087466
48301280.979297,0.67026567,-0.31786492
48401284.32389,0.66110998,-0.32169375
48501287.668484,0.67386526,-0.31752467
48601291.013077,0.66931158,-0.31619087
48701294.357671,0.67573667,-0.32189992
48801297.702264,0.66899127,-0.32520902
48901301.046858,0.67131966,-0.31876966
49001304.391451,0.6675387,-0.32180995
49101307.736045,0.67117703,-0.3129456
49201311.080638,0.68312818,-0.32487506
49301314.425232,0.66366595,-0.32635596
49401317.769825,0.66942853,-0.32446221
49501321.114419,0.66714615,-0.31811491
49601324.459012,0.66915554,-0.31727296
49701327.803605,0.68101513,-0.32522237
49801331.148199,0.66210687,-0.33260223
49901334.492792,0.66976696,-0.33467051
50001337.837386,0.6654855,-0.33115816
50101341.181979,0.66391474,-0.32033533
50201344.526573,0.66863275,-0.32332966
50301347.871166,0.6667484,-0.33383849
50401351.21576,0.6591078,-0.32986927
50501354.560353,0.66221082,-0.33812243
50601357.904947,0.66258472,-0.33024901
50701361.24954,0.66506815,-0.32950136
50801364.594134,0.6534903,-0.33334291
50901367.938727,0.66998988,-0.33421722
51001371.283321,0.65443653,-0.34620765
51101374.627914,0.66272098,-0.33505943
51201377.972507,0.66315228,-0.33671603
51301381.317101,0.65661418,-0.33508173
51401384.661694,0.66270894,-0.3405337
51501388.006288,0.66110843,-0.3339467
51601391.350881,0.67423648,-0.33220953
51701394.695475,0.6623804,-0.33122155
51801398.040068,0.65571296,-0.33233413
51901401.384662,0.66153634,-0.34004566
52001404.729255,0.65534961,-0.33752444
52101408.073849,0.66546863,-0.33794412
52201411.418442,0.65648943,-0.34329855
52301414.763036,0.66319251,-0.33639085
52401418.107629,0.65764111,-0.34223014
52501421.452222,0.6532709,-0.34859315
52601424.796816,0.65913856,-0.350427
52701428.141409,0.65888125,-0.34449703
52801431.486003,0.65230811,-0.34050363
52901434.830596,0.65491182,-0.34670499
53001438.17519,0.65873325,-0.3355881
53101441.519783,0.65955025,-0.35147849
53201444.864377,0.65934306,-0.35623324
53301448.20897,0.64856023,-0.34514591
53401451.553564,0.65948886,-0.34542555
53501454.898157,0.63495916,-0.3318246
53601458.242751,0.6513958,-0.36569521
53701461.587344,0.64364427,-0.36357874
53801464.931938,0.63723642,-0.33601794
53901468.276531,0.66146779,-0.37139809
54001471.621124,0.63556749,-0.3566249
54101474.965718,0.67318708,-0.35413632
54201478.310311,0.66684914,-0.34307832
54301481.654905,0.65712583,-0.3487716
54401484.999498,0.6622054,-0.34951231
54501488.344092,0.65670681,-0.36455792
54601491.688685,0.65775782,-0.35247111
54701495.033279,0.6490584,-0.36395442
54801498.377872,0.64694303,-0.3547115
54901501.722466,0.67082298,-0.35923237
55001505.067059,0.65436679,-0.34996673
55101508.411653,0.63293147,-0.35829392
55201511.756246,0.64562076,-0.35092694
55301515.100839,0.65393788,-0.36908245
55401518.445433,0.66002285,-0.36123005
55501521.790026,0.65498346,-0.36153412
55601525.13462,0.66093892,-0.35624561
55701528.479213,0.62967306,-0.37160724
55801531.823807,0.66966456,-0.38371241
55901535.1684,0.64959711,-0.37637892
56001538.512994,0.66978472,-0.35058069
56101541.857587,0.65057814,-0.36348686
56201545.202181,0.63445717,-0.36689913
56301548.546774,0.66039163,-0.36170274
56401551.891368,0.63984185,-0.38136855
56501555.235961,0.64314395,-0.36949381
56601558.580555,0.6317035,-0.37686947
56701561.925148,0.65805542,-0.3493683
56801565.269741,0.63682413,-0.37648886
56901568.614335,0.65902561,-0.37422687
57001571.958928,0.63235825,-0.3750838
57101575.303522,0.64618993,-0.35902205
57201578.648115,0.64976132,-0.36941433
57301581.992709,0.65018743,-0.3640103
57401585.337302,0.6484701,-0.37571406
57501588.681896,0.6536411,-0.38185474
57601592.026489,0.64547795,-0.36806819
57701595.371083,0.63296628,-0.37688118
57801598.715676,0.63971621,-0.37127441
57901602.06027,0.64342177,-0.37906
58001605.404863,0.62615603,-0.38338241
58101608.749457,0.65792668,-0.37636241
58201612.09405,0.65004975,-0.36655146
58301615.438643,0.64838058,-0.40077329
58401618.783237,0.65400279,-0.38209623
58501622.12783,0.64362472,-0.38126513
58601625.472424,0.63336468,-0.3705484
58701628.817017,0.64875317,-0.38672683
58801632.161611,0.6183086,-0.37817958
58901635.506204,0.64728123,-0.38409689
59001638.850798,0.64673358,-0.36080122
59101642.195391,0.63705087,-0.38378951
59201645.539985,0.6465441,-0.38460973
59301648.884578,0.6443724,-0.3761951
59401652.229172,0.65047485,-0.37947395
59501655.573765,0.64620799,-0.38173866
59601658.918358,0.63508129,-0.37176469
59701662.262952,0.63453853,-0.39486709
