!CSV A.01.01
!Agilent Technologies,N5227A,US51270345,A.09.80.20
!Agilent N5227A: A.09.80.20
!Date: Monday, November 26, 2018 16:20:38
!Source: Standard

BEGIN CH1_DATA
Freq(Hz),S21(REAL),S21(IMAG)
10000000,-0.060029123,0.025300507
10100003.344593,0.018158909,0.028437471
10200006.689187,-0.037062559,-0.031242972
10300010.03378,0.046681743,0.034051735
10400013.378374,0.00057391013,-0.040605824
10500016.722967,0.05132116,0.047719602
10600020.067561,0.027075332,-0.042081904
10700023.412154,-0.044353321,0.013014001
10800026.756748,-0.053148445,-0.038101159
10900030.101341,0.045303799,0.016797811
11000033.445935,0.014768634,-0.070573814
11100036.790528,0.0072140964,0.036685649
11200040.135122,0.05597873,0.0080957068
11300043.479715,0.023121027,0.0012737267
11400046.824309,-0.073210441,-0.0068744002
11500050.168902,-0.055989005,0.045862373
11600053.513495,0.057337426,-0.026580123
11700056.858089,-0.021382116,0.02730142
11800060.202682,0.026311856,-0.033119172
11900063.547276,-0.034613408,-0.0010300935
12000066.891869,-0.0669448,-0.024427682
12100070.236463,0.013683985,0.054741383
12200073.581056,0.038850471,-0.115403
12300076.92565,-0.0058984142,-0.023298401
12400080.270243,-0.01141573,-0.02054083
12500083.614837,0.025944743,-0.020096529
12600086.95943,0.012447999,0.018025249
12700090.304024,0.00018390386,-0.0022885038
12800093.648617,-0.024168434,0.040373381
12900096.99321,0.018458527,-0.036012523
13000100.337804,0.019718103,0.045241576
13100103.682397,0.042510677,-0.013701409
13200107.026991,0.018400665,0.013608051
13300110.371584,-0.0087198149,-0.016118677
13400113.716178,-0.025278244,-0.035073858
13500117.060771,-0.0089483503,-0.027030306
13600120.405365,0.024094781,0.048085615
13700123.749958,0.017271457,-0.0091838464
13800127.094552,0.016106939,-0.032695271
13900130.439145,-0.0047393907,-0.00084502128
14000133.783739,-0.0041704187,0.05579447
14100137.128332,0.022546217,0.0046483325
14200140.472926,-0.009275292,0.024787275
14300143.817519,-0.016279897,0.023106564
14400147.162112,-0.017708384,0.023089046
14500150.506706,0.0064433576,0.024117265
14600153.851299,-0.014652581,-0.018773643
14700157.195893,-0.020448295,-0.039754231
14800160.540486,-0.023484699,0.0029082585
14900163.88508,-0.012907349,-0.0078131901
15000167.229673,0.0027832554,-0.041190058
15100170.574267,0.014273083,0.0083841868
15200173.91886,0.0047187926,0.0026507052
15300177.263454,0.0041499794,-0.0068986989
15400180.608047,-0.024579886,0.013502127
15500183.952641,-0.013623044,0.0032263815
15600187.297234,-0.0012281623,-0.024586756
15700190.641827,-0.023752177,-0.017514551
15800193.986421,0.0019615742,-0.0071106264
15900197.331014,0.018615317,0.017871523
16000200.675608,0.017300118,0.017713578
16100204.020201,-0.0058234455,-0.0080902139
16200207.364795,0.025677435,-0.00077462639
16300210.709388,-0.0067911558,-0.012258361
16400214.053982,0.011512983,-0.00075047323
16500217.398575,-0.0046329033,0.018953864
16600220.743169,0.0096581606,0.011559683
16700224.087762,-0.0037888065,0.021908576
16800227.432356,-0.019058172,-0.02942927
16900230.776949,0.013829486,0.027350876
17000234.121543,0.022344943,-0.032975819
17100237.466136,0.0012363564,-0.01661312
17200240.810729,-0.0047581419,0.0093203019
17300244.155323,-0.020726033,0.024601897
17400247.499916,-0.0035849521,0.00081498525
17500250.84451,-0.01974644,-0.015726466
17600254.189103,-0.0049883905,0.015138808
17700257.533697,0.0088872025,0.012021462
17800260.87829,-0.014089816,0.014563943
17900264.222884,-0.0047081579,-0.02992768
18000267.567477,0.029038573,-0.0071815415
18100270.912071,0.0084441928,-0.0026580133
18200274.256664,0.0090498775,-0.020777041
18300277.601258,0.0090284552,0.031341325
18400280.945851,-0.016141197,-0.011341489
18500284.290444,-0.0098658549,0.0026581537
18600287.635038,-0.0062921154,-0.01062948
18700290.979631,-0.015068053,-0.003505711
18800294.324225,-0.00758499,0.0078811897
18900297.668818,-0.011882487,-0.0073004644
19000301.013412,-0.0045265402,0.02091367
19100304.358005,-0.022484718,0.019243697
19200307.702599,0.009163796,-0.013534724
19300311.047192,-0.022375369,-0.02659696
19400314.391786,0.0010502087,0.014804998
19500317.736379,-0.0062170015,-0.015361796
19600321.080973,-0.016526164,0.01712657
19700324.425566,0.019139914,0.016308814
19800327.77016,-0.033031307,0.02272914
19900331.114753,4.7300359e-006,0.00040367668
20000334.459346,0.0091728754,0.0045953407
20100337.80394,-0.011182813,0.020435991
20200341.148533,0.00041871419,0.0063931807
20300344.493127,-0.0073208408,-0.0058983224
20400347.83772,-0.02484644,-0.0071313749
20500351.182314,-0.0035518815,-0.0016584712
20600354.526907,-0.017288329,-0.0023663805
20700357.871501,0.0099167041,-0.0059429416
20800361.216094,-0.0061550746,-0.002857062
20900364.560688,-0.0068604718,-0.0071210302
21000367.905281,0.0026911132,0.0034677554
21100371.249875,0.014745275,0.00082145067
21200374.594468,-0.00014129348,-0.0082618007
21300377.939062,-0.0015422713,-0.0047249566
21400381.283655,0.0080864457,0.01264127
21500384.628248,0.0070476169,-0.0071235844
21600387.972842,0.011254583,-0.0085284514
21700391.317435,0.0011912285,-0.00048116819
21800394.662029,-0.0050426284,0.027224053
21900398.006622,-0.0096891895,-0.015980821
22000401.351216,0.023251986,-0.0073082126
22100404.695809,0.015545225,-0.012958055
22200408.040403,-0.0081383307,-0.018733144
22300411.384996,-0.0048954198,0.0070653418
22400414.72959,-0.011838758,0.0012911436
22500418.074183,0.0031390435,0.0032914826
22600421.418777,-0.0076310751,-0.01107231
22700424.76337,-0.0034012967,0.0016968254
22800428.107963,-0.01158589,0.00080013683
22900431.452557,0.0072655519,-0.013884743
23000434.79715,-0.0012153521,0.0074945134
23100438.141744,0.00026630095,-0.0068834312
23200441.486337,0.016112147,0.0017657396
23300444.830931,-0.00042763556,-0.0028224704
23400448.175524,0.012717226,0.0053946804
23500451.520118,0.013820765,-0.012306822
23600454.864711,-0.0045413608,-0.0012217137
23700458.209305,0.011095257,-5.3556374e-005
23800461.553898,-0.0043138424,0.01091332
23900464.898492,0.0079712858,-0.011447056
24000468.243085,-0.010297191,-0.020326927
24100471.587679,-0.0054227337,-0.010185996
24200474.932272,-0.0051095313,0.00043417944
24300478.276865,0.0076575363,-0.010989826
24400481.621459,0.011563714,-0.013273366
24500484.966052,0.0038848801,-6.378354e-005
24600488.310646,0.0058489698,0.011824693
24700491.655239,0.0028044505,-0.015458512
24800494.999833,-0.0047268993,-0.0012027818
24900498.344426,0.0031849362,0.0069758105
25000501.68902,0.011926094,-0.0084937541
25100505.033613,-0.0024879673,-0.0066906945
25200508.378207,-0.0017755395,0.0051339474
25300511.7228,0.0016745124,-0.0024827935
25400515.067394,-0.00032798696,-0.010046665
25500518.411987,-0.00022894968,-0.014097296
25600521.75658,0.00097445882,0.0013326599
25700525.101174,-0.0093821585,0.0066273687
25800528.445767,-0.003242739,0.0054919254
25900531.790361,-0.0069514727,0.015077833
26000535.134954,-0.00090266124,0.0088507924
26100538.479548,-0.0036016712,-0.0029151835
26200541.824141,-0.0010068277,0.002891111
26300545.168735,-0.01818168,-0.0056171236
26400548.513328,-0.0097785555,0.001066346
26500551.857922,0.0057374989,-0.0033066941
26600555.202515,-0.0055287802,-0.014229132
26700558.547109,0.0063425074,0.0019207518
26800561.891702,-0.022376714,-0.012372151
26900565.236296,-0.001491809,-0.0033850682
27000568.580889,0.0023385244,-0.0082379058
27100571.925482,0.014563643,-0.0063061411
27200575.270076,-0.0022579038,-0.011675766
27300578.614669,0.00097715924,-0.003539213
27400581.959263,0.0073406938,0.010631921
27500585.303856,0.015009385,0.0035873849
27600588.64845,0.0084126592,0.0039231698
27700591.993043,0.010764414,0.0031080304
27800595.337637,0.001062058,-0.0086225737
27900598.68223,0.003424813,0.0037272323
28000602.026824,-0.00067421503,0.010135761
28100605.371417,0.0042149187,0.0036602435
28200608.716011,-0.00020088934,-0.0050308574
28300612.060604,-0.0014526169,0.0036730759
28400615.405197,0.0031997187,-0.0048933653
28500618.749791,-0.0032483612,0.0057938178
28600622.094384,-0.0027011661,0.0018652421
28700625.438978,0.013171243,-0.012427354
28800628.783571,-0.0034723885,-0.0030473087
28900632.128165,-0.0070716911,-0.0021819919
29000635.472758,0.0035679657,0.0019190155
29100638.817352,-0.0035468871,0.0077905073
29200642.161945,0.0041482956,0.0021364414
29300645.506539,0.012626953,0.0017969888
29400648.851132,-0.0078726253,0.00052069704
29500652.195726,0.0014457701,0.00040680228
29600655.540319,-0.00032351841,-0.01032861
29700658.884913,-0.0064510293,-0.0011517993
29800662.229506,-0.003269742,-0.0048334217
29900665.574099,-0.0065734121,0.017122939
30000668.918693,-0.003462109,-0.0066921567
30100672.263286,-0.0057528624,0.0093486197
30200675.60788,-0.0073348316,-0.016420865
30300678.952473,-0.0064280592,-0.0025523875
30400682.297067,0.0067880074,-0.0027467187
30500685.64166,0.0035205742,-0.0033142352
30600688.986254,-0.0026891928,-0.00071164529
30700692.330847,0.0014344899,0.0014342488
30800695.675441,0.0023490479,-0.003835337
30900699.020034,-0.0013280516,-0.013400866
31000702.364628,0.0023787823,-0.0011248013
31100705.709221,0.001876877,-0.0015913119
31200709.053815,0.0022709437,0.0069242367
31300712.398408,-0.0051310146,0.016449736
31400715.743001,0.0011241164,-0.010710848
31500719.087595,0.00046317125,0.0065778606
31600722.432188,-0.0013271541,0.0025085206
31700725.776782,-0.00072552374,0.0034858075
31800729.121375,-0.01509532,-0.016261682
31900732.465969,0.0010844953,-0.010998297
32000735.810562,0.0030982022,0.013517022
32100739.155156,-0.010291191,-0.00078606087
32200742.499749,0.0013911374,0.0030318403
32300745.844343,-0.00095131638,0.0010849159
32400749.188936,0.014444266,-0.0080302507
32500752.53353,-0.0027391613,0.0051570949
32600755.878123,-0.0027515111,-0.013749472
32700759.222716,-0.011812665,-0.0054749022
32800762.56731,-0.00082684867,0.0044550314
32900765.911903,-0.0064882794,-0.0079598995
33000769.256497,-0.003362532,-0.009234135
33100772.60109,-0.0095685469,-0.0023770176
33200775.945684,-0.0055504558,0.0041422024
33300779.290277,0.00010483,0.0056025768
33400782.634871,0.0054441621,-0.0018176142
33500785.979464,0.0023936643,-0.0088435477
33600789.324058,0.0021389658,0.010162529
33700792.668651,-0.00051213917,-0.001484448
33800796.013245,0.0091035627,0.0040908512
33900799.357838,0.0039699171,-0.0056158626
34000802.702432,-0.0026805047,0.0013136981
34100806.047025,-0.0016793021,0.0039885612
34200809.391618,-0.0092082052,-0.0080342526
34300812.736212,-0.0073709111,0.0051499358
34400816.080805,-0.0022935316,0.0042143576
34500819.425399,-0.0021505423,-0.00014100353
34600822.769992,0.0034858175,-0.00094269222
34700826.114586,-0.0035995522,-0.0066439374
34800829.459179,-0.0094073145,-0.00013711303
34900832.803773,-0.0052897157,-0.0014049998
35000836.148366,-0.0071816272,-0.0018894359
35100839.49296,0.0049014231,-0.003233193
35200842.837553,0.00025227654,-0.0033659677
35300846.182147,0.0041293814,0.0033255103
35400849.52674,0.0050576418,-0.0036721725
35500852.871333,0.010414706,-0.00049301708
35600856.215927,0.0093893427,0.0078165885
35700859.56052,0.00060699077,0.0068955198
35800862.905114,0.012663627,-0.0056471652
35900866.249707,-0.00022063871,0.0009028099
36000869.594301,-0.0027866738,0.0020566052
36100872.938894,0.0017061053,-0.0090287812
36200876.283488,0.00011716601,0.00040012648
36300879.628081,0.0037643784,0.0020547444
36400882.972675,-0.00061242614,0.0025929324
36500886.317268,-0.0052955612,-0.0019943807
36600889.661862,-0.0020388155,0.0039897054
36700893.006455,0.00057695468,0.00022424989
36800896.351049,-0.0034009018,0.0046365149
36900899.695642,-0.0092872595,-0.0016545081
37000903.040235,-0.0046493639,-0.0009102507
37100906.384829,-0.0071057267,0.0031556136
37200909.729422,-0.0011880504,-0.0042383727
37300913.074016,-0.0013710158,0.0029889101
37400916.418609,0.0010701709,-0.0038683494
37500919.763203,-0.0037204798,-0.0081503773
37600923.107796,-0.002097989,-5.6371653e-005
37700926.45239,-0.00099008041,0.00187183
37800929.796983,0.00059759099,-0.0077899368
37900933.141577,0.004363759,-0.010017917
38000936.48617,-0.0010487771,-0.005052295
38100939.830764,-0.0011084318,0.0022771242
38200943.175357,-0.00047045018,-0.00047570537
38300946.51995,0.00095289474,0.0023676388
38400949.864544,-0.0011920972,0.0071310294
38500953.209137,0.0035412989,0.0030957258
38600956.553731,-0.0095100366,0.0034292955
38700959.898324,0.0050784252,-0.0038756719
38800963.242918,0.0074425545,-0.0022028044
38900966.587511,0.0023836875,0.0019073924
39000969.932105,0.0027294767,0.014456276
39100973.276698,-0.0048645386,0.0018871457
39200976.621292,0.0011587276,0.00090937695
39300979.965885,-0.0026989575,0.002353488
39400983.310479,-0.0040510856,0.00040386774
39500986.655072,-0.0085766744,-0.0024738873
39600989.999666,-0.0025143526,-0.00061892346
39700993.344259,-0.0021627152,0.00092849199
39800996.688852,0.0057087946,-0.0015923424
39901000.033446,-0.0031120556,0.0063297772
40001003.378039,-0.0070685935,-0.003503185
40101006.722633,-0.00079792581,0.0010084979
40201010.067226,-0.0019653016,-0.002129399
40301013.41182,0.0020860627,0.0054006334
40401016.756413,-0.0027889227,0.001233111
40501020.101007,0.0088630486,0.001196662
40601023.4456,0.0050758668,-0.0038009011
40701026.790194,0.0061645354,0.0043537831
40801030.134787,0.0034613423,0.0021656698
40901033.479381,-0.0035827833,0.0052888375
41001036.823974,-0.0060348259,0.004626201
41101040.168568,-0.0018566297,-0.00048612274
41201043.513161,-0.0062265256,0.0088850884
41301046.857754,0.0049658208,0.0068407715
41401050.202348,-0.0040994086,-0.0068534128
41501053.546941,0.0063150753,0.0034538573
41601056.891535,-0.0002971584,-0.0013300499
41701060.236128,0.0020684018,-0.0021973432
41801063.580722,-0.003517142,0.0070795314
41901066.925315,-0.00084065943,0.0048271394
42001070.269909,-8.3924271e-005,-0.0078839604
42101073.614502,0.0033890395,0.002846773
42201076.959096,0.003726339,0.0063041029
42301080.303689,-0.00060512999,-0.0047279401
42401083.648283,0.0030348634,0.0024601526
42501086.992876,0.0037208225,0.0036209626
42601090.337469,0.00062369474,-0.00033545325
42701093.682063,0.0037591369,-0.0055321292
42801097.026656,-0.010582702,-0.0019618713
42901100.37125,-0.0016845773,-0.00088539498
43001103.715843,-0.00064115797,0.0063504246
43101107.060437,-0.0070477198,0.0020855693
43201110.40503,-0.0044883122,-0.0044783233
43301113.749624,0.0030634268,0.0030465492
43401117.094217,-0.0062452699,-0.0070854337
43501120.438811,0.0036409257,0.0005003027
43601123.783404,-0.00096377439,0.0089058531
43701127.127998,0.0056728199,0.00064762507
43801130.472591,-0.0041128905,0.00020038475
43901133.817185,0.0047413241,-0.0051178755
44001137.161778,0.0067772502,0.0014552912
44101140.506371,0.00085551327,-0.0024248271
44201143.850965,0.0055925725,-0.0024282057
44301147.195558,-0.00073867058,-8.634499e-005
44401150.540152,0.0016116046,0.0019125692
44501153.884745,0.00027412357,0.001292489
44601157.229339,0.0018722288,0.00091880094
44701160.573932,-0.00087443716,-0.00081504113
44801163.918526,0.010597179,-7.6147648e-005
44901167.263119,0.0077980612,0.0035778757
45001170.607713,0.00091970974,0.003345073
45101173.952306,-0.0036724359,-0.0045855395
45201177.2969,0.0053347526,0.007254838
45301180.641493,0.0048555066,-0.0015429622
45401183.986086,-0.0053065647,0.0010563253
45501187.33068,0.0017168028,0.0026269327
45601190.675273,0.0056921635,0.0049360762
45701194.019867,0.0032309222,0.0034344685
45801197.36446,0.0014514091,0.0027297288
45901200.709054,0.0042216247,-0.0080089821
46001204.053647,0.0025476126,-0.0013691916
46101207.398241,0.0030731338,-0.002886252
46201210.742834,0.00019935617,0.0028705599
46301214.087428,-0.00085659052,0.0016986177
46401217.432021,-0.0007987686,0.0010553964
46501220.776615,0.0038056062,0.0038261982
46601224.121208,0.00064927712,0.00094289327
46701227.465802,-0.001247588,0.0013171911
46801230.810395,0.00097187894,0.00055354962
46901234.154988,0.0043127579,-0.0010769872
47001237.499582,0.0017856689,0.00113923
47101240.844175,-0.0059476499,0.00033263516
47201244.188769,-0.0051766299,-0.00054652616
47301247.533362,0.0024147995,0.0025595957
47401250.877956,-0.00047228162,-0.0041201813
47501254.222549,0.0029915755,-0.003141433
47601257.567143,-0.00087748043,-0.0029983551
47701260.911736,0.0020373289,0.0028754962
47801264.25633,0.001461201,-0.00019398947
47901267.600923,-0.00095716945,0.00025482289
48001270.945517,-0.0031627554,2.6564705e-005
48101274.29011,-8.3807718e-005,-0.00066317763
48201277.634704,-0.0071186125,-0.0015803378
48301280.979297,0.0014595441,0.011600023
48401284.32389,-0.0048156823,0.005356011
48501287.668484,0.0050266641,0.0023045952
48601291.013077,-0.0045688786,-0.00030960201
48701294.357671,-0.0031682898,0.0033001751
48801297.702264,-0.0054098833,-0.0025731116
48901301.046858,0.0036985476,0.0045503126
49001304.391451,0.0037704904,-0.0020942374
49101307.736045,0.00028941783,0.0041067996
49201311.080638,0.0018182195,-0.0015866808
49301314.425232,-0.00035947619,0.0048534186
49401317.769825,-0.0028517123,4.1110277e-005
49501321.114419,-0.0033444464,0.0028212143
49601324.459012,0.0019165828,0.0044769919
49701327.803605,0.002058578,0.0044204379
49801331.148199,0.0071644187,-0.0035329871
49901334.492792,-0.00019242706,0.0037340659
50001337.837386,0.00026779054,-0.0057535367
50101341.181979,-0.0013901383,0.00016184116
50201344.526573,0.0031184058,-0.00012184657
50301347.871166,-0.00010085294,-0.0051727504
50401351.21576,-0.0026909132,0.0041148658
50501354.560353,0.0060516861,0.00031947225
50601357.904947,0.0037893048,0.00010492996
50701361.24954,-0.0054645929,-0.0023199895
50801364.594134,0.00032296142,-0.0024791099
50901367.938727,0.002727842,0.0009821119
51001371.283321,-0.003932721,-0.0019520344
51101374.627914,0.0026869657,0.0012898494
51201377.972507,-0.0091888709,-0.00014863345
51301381.317101,0.003899615,7.7061668e-005
51401384.661694,0.0034637507,0.0048937974
51501388.006288,0.00079150504,-0.0030406162
51601391.350881,0.0034150665,0.00099937234
51701394.695475,0.0035614141,0.0030202046
51801398.040068,0.0017448197,-0.0013338623
51901401.384662,0.001425335,0.0073845712
52001404.729255,-0.0022860167,0.0015978962
52101408.073849,-0.002511132,-0.0015800431
52201411.418442,-0.0039989124,-0.00035461981
52301414.763036,-0.0010021034,-5.1400555e-005
52401418.107629,0.0028994973,-0.0009322004
52501421.452222,-0.001513226,-0.001934085
52601424.796816,0.0030727312,0.003333936
52701428.141409,0.0028225766,0.0013488025
52801431.486003,-0.0010389619,0.0035249926
52901434.830596,0.00022222131,0.0080242427
53001438.17519,-0.004419175,0.0025600214
53101441.519783,0.019560525,0.0035436561
53201444.864377,0.001314181,-0.013465719
53301448.20897,-0.00061561336,-0.0088242134
53401451.553564,-0.0069420002,0.0011399334
53501454.898157,-0.0082017919,-0.0064482251
53601458.242751,-0.0035952844,-0.0037928943
53701461.587344,-0.00034174789,0.0012248523
53801464.931938,0.002177553,-0.016206833
53901468.276531,-0.0054199509,-0.012925244
54001471.621124,0.0027499774,-0.0018856945
54101474.965718,-0.0041388529,-0.005834342
54201478.310311,-0.0066445107,-0.002532528
54301481.654905,0.0062993173,-0.0013311942
54401484.999498,0.00040062575,-0.0013630476
54501488.344092,0.0048017581,0.0019776381
54601491.688685,-0.0022363774,0.010403071
54701495.033279,-0.002512265,-0.0016409998
54801498.377872,-0.0090873111,0.0016882072
54901501.722466,-0.0010364387,0.001805809
55001505.067059,-0.0070333653,-0.0016047879
55101508.411653,-0.00018202994,-0.010207228
55201511.756246,0.013369874,0.0018454457
55301515.100839,0.0019969118,-0.0040444192
