!CSV A.01.01
!Agilent Technologies,N5227A,US51270345,A.09.80.20
!Agilent N5227A: A.09.80.20
!Date: Monday, November 26, 2018 16:02:26
!Source: Standard

BEGIN CH1_DATA
Freq(Hz),S12(REAL),S12(IMAG)
10000000,-3.9684212e-005,2.5105624e-005
10100003.344593,-0.00011630852,-0.00018064067
10200006.689187,-4.8965172e-005,0.00020424931
10300010.03378,4.2656186e-005,0.00012388102
10400013.378374,4.7098871e-005,-0.00013044733
10500016.722967,0.00013683067,-4.7768932e-005
10600020.067561,-6.404367e-005,0.00014772193
10700023.412154,-5.0757841e-005,1.0380962e-005
10800026.756748,6.9252397e-005,-9.6902986e-005
10900030.101341,2.2514279e-005,-0.00010291005
11000033.445935,0.00010351761,-9.2112867e-005
11100036.790528,-7.2871415e-005,3.5756993e-006
11200040.135122,8.1669146e-005,3.6771926e-005
11300043.479715,-2.5870356e-006,2.2427672e-005
11400046.824309,-0.0003425761,-6.0446284e-005
11500050.168902,-0.00020951581,0.00042214623
11600053.513495,6.248607e-005,0.00010182038
11700056.858089,2.8960536e-005,-0.00025149417
11800060.202682,-5.8009868e-005,-0.00026081019
11900063.547276,5.2363899e-005,0.00012274084
12000066.891869,-9.9984551e-005,-0.0002009974
12100070.236463,-6.4285538e-005,5.8405381e-005
12200073.581056,-1.442526e-005,5.423899e-005
12300076.92565,0.00016493243,0.00015396296
12400080.270243,0.00026640826,-0.00012582701
12500083.614837,-4.0758045e-005,-3.9258786e-005
12600086.95943,0.00017987868,2.5721149e-005
12700090.304024,-0.00010846242,-6.8468238e-005
12800093.648617,4.4572043e-005,-2.8868062e-005
12900096.99321,3.1985466e-005,1.8698142e-005
13000100.337804,-0.00021572375,4.5813744e-005
13100103.682397,-0.00018235734,6.3705382e-005
13200107.026991,0.00013160109,-4.0739516e-005
13300110.371584,5.9535414e-005,-5.1043993e-005
13400113.716178,-2.2084245e-005,-1.4654032e-005
13500117.060771,-0.00016679938,-6.3406136e-005
13600120.405365,0.00013591125,3.2140975e-005
13700123.749958,-9.7889686e-005,-6.0703809e-005
13800127.094552,0.00017510033,-4.5626195e-005
13900130.439145,5.0648014e-005,-3.8303326e-005
14000133.783739,6.3031745e-005,4.2051834e-005
14100137.128332,-1.5018296e-005,5.877588e-005
14200140.472926,2.9853963e-006,8.9761437e-005
14300143.817519,9.9243269e-005,-7.3216972e-005
14400147.162112,3.3311939e-005,-5.9210401e-005
14500150.506706,-0.00024318938,0.00014292257
14600153.851299,8.9964095e-005,0.00012311809
14700157.195893,9.6827189e-006,5.6895184e-005
14800160.540486,2.417416e-005,-7.0628208e-005
14900163.88508,0.00010065234,9.4692266e-005
15000167.229673,-5.2245821e-005,0.0001201063
15100170.574267,-3.951351e-005,0.0001721155
15200173.91886,-5.1923562e-005,3.368195e-005
15300177.263454,0.00014276085,-5.1534451e-005
15400180.608047,-5.2273048e-005,3.6292606e-006
15500183.952641,3.1021318e-005,-3.5301455e-005
15600187.297234,0.00013249449,-0.00016796921
15700190.641827,7.165131e-005,0.00012631468
15800193.986421,7.3182578e-005,-0.00016516115
15900197.331014,2.0008376e-005,-1.0049551e-005
16000200.675608,-4.8927115e-005,-1.6649468e-005
16100204.020201,0.00011013244,1.1360183e-005
16200207.364795,2.4261077e-005,3.2797307e-005
16300210.709388,0.0001360039,-3.7841732e-005
16400214.053982,-1.3983979e-005,-4.5472592e-005
16500217.398575,-1.2410504e-006,-4.868388e-005
16600220.743169,-0.00012383064,-3.2427495e-005
16700224.087762,1.201922e-006,-3.3374457e-005
16800227.432356,-0.00013927263,-5.3997432e-005
16900230.776949,-5.5301498e-005,8.1253325e-005
17000234.121543,7.054735e-005,0.00013316471
17100237.466136,-0.00014819167,-3.5714616e-005
17200240.810729,-7.5943922e-006,1.3066636e-005
17300244.155323,3.5875633e-005,4.631772e-005
17400247.499916,3.617979e-005,-8.2263701e-005
17500250.84451,7.7981254e-005,6.6162414e-005
17600254.189103,3.1956533e-005,6.0370261e-005
17700257.533697,0.0001047376,-5.5278295e-005
17800260.87829,0.00011703455,7.9257807e-005
17900264.222884,-5.3830474e-005,2.909787e-005
18000267.567477,5.9816648e-005,5.8931833e-005
18100270.912071,7.9676691e-005,6.2217697e-007
18200274.256664,0.00012644375,6.9482965e-005
18300277.601258,0.00013716205,4.489325e-006
18400280.945851,2.4918405e-005,-5.5511311e-005
18500284.290444,-6.8469439e-005,6.3496766e-005
18600287.635038,-5.0336126e-005,2.8662502e-005
18700290.979631,6.6602734e-005,1.5795707e-005
18800294.324225,-4.0870877e-005,3.3084023e-005
18900297.668818,6.7089262e-005,-2.9116909e-005
19000301.013412,2.2878643e-005,7.1064118e-005
19100304.358005,-2.4908932e-005,-2.0564758e-005
19200307.702599,1.8658575e-005,-1.6190963e-005
19300311.047192,-2.1265892e-005,-4.7560243e-005
19400314.391786,-8.3825063e-005,-6.2579398e-005
19500317.736379,-2.5544701e-005,-2.7698878e-005
19600321.080973,1.8022647e-006,-2.9093801e-005
19700324.425566,1.0793196e-005,-1.0949207e-006
19800327.77016,4.3792716e-005,-1.5003366e-005
19900331.114753,-8.338083e-005,1.1182829e-005
20000334.459346,8.1201521e-005,9.4583178e-005
20100337.80394,3.5478341e-005,-0.0001347975
20200341.148533,-4.5257093e-005,8.1837803e-005
20300344.493127,-7.4700503e-005,-3.2985292e-006
20400347.83772,7.1773022e-005,2.7264257e-005
20500351.182314,-2.9137358e-005,2.9775672e-005
20600354.526907,-5.6052973e-005,0.00011299938
20700357.871501,-8.8543602e-005,-5.2458163e-005
20800361.216094,8.8507084e-005,2.402222e-006
20900364.560688,-7.9156067e-005,7.5896765e-005
21000367.905281,1.919338e-005,3.4484681e-005
21100371.249875,-4.9154936e-005,2.2204151e-005
21200374.594468,-0.00014671929,-9.8397628e-005
21300377.939062,8.428585e-005,1.4065668e-005
21400381.283655,-1.780477e-005,6.016879e-005
21500384.628248,-5.5597095e-005,-6.9141322e-005
21600387.972842,9.9080789e-005,-8.2712095e-006
21700391.317435,-1.6846527e-005,-2.6485723e-005
21800394.662029,3.1595206e-005,-4.9465838e-005
21900398.006622,4.0119197e-005,1.5797896e-005
22000401.351216,3.8194034e-005,-3.6698471e-005
22100404.695809,4.0556013e-005,5.1333878e-005
22200408.040403,-5.3715805e-005,-2.7232709e-005
22300411.384996,-3.8917453e-005,1.2076749e-005
22400414.72959,4.3582932e-005,0.0001420379
22500418.074183,-8.454248e-005,2.0698417e-005
22600421.418777,-1.384782e-005,-8.6304699e-006
22700424.76337,3.0969447e-006,1.7092911e-005
22800428.107963,6.6268899e-006,-3.8247716e-005
22900431.452557,7.3774478e-005,-2.7087079e-005
23000434.79715,-2.9429804e-005,-3.9501159e-005
23100438.141744,3.4261804e-005,5.3278065e-005
23200441.486337,3.3314176e-005,3.886213e-005
23300444.830931,4.6229081e-005,-2.5068306e-005
23400448.175524,-1.6465217e-005,1.4190675e-005
23500451.520118,2.3910694e-005,-2.8565928e-005
23600454.864711,1.3166195e-005,-6.4216729e-005
23700458.209305,2.8604803e-005,3.0513458e-005
23800461.553898,-3.616176e-005,-3.0424062e-005
23900464.898492,1.5002983e-005,6.5897184e-005
24000468.243085,4.3032331e-005,4.8372953e-005
24100471.587679,-3.5314628e-005,-1.6728563e-005
24200474.932272,-3.033676e-005,1.8268474e-006
24300478.276865,-4.4477725e-005,4.8560003e-005
24400481.621459,-1.4866466e-005,1.2519521e-005
24500484.966052,4.9595303e-005,4.5810069e-005
24600488.310646,8.4415035e-005,7.3897565e-005
24700491.655239,4.2340576e-005,-5.8621688e-005
24800494.999833,5.8767066e-005,-4.056163e-005
24900498.344426,4.2501877e-005,-8.3250561e-005
25000501.68902,1.5384593e-006,1.4061307e-005
25100505.033613,5.1868778e-005,7.0322727e-005
25200508.378207,1.4888212e-005,8.4780995e-006
25300511.7228,-3.9853698e-005,4.5987745e-005
25400515.067394,5.8392334e-006,-9.7568984e-005
25500518.411987,5.1874809e-005,7.5821699e-005
25600521.75658,-3.0779269e-005,-3.2866465e-005
25700525.101174,4.3082229e-005,-9.6516642e-006
25800528.445767,2.7668164e-006,-3.4868692e-005
25900531.790361,-2.2535758e-005,-1.215408e-005
26000535.134954,0.00012458705,-2.1357248e-005
26100538.479548,-5.3908741e-005,9.6869881e-006
26200541.824141,1.9828489e-005,-1.4300179e-005
26300545.168735,-3.2172138e-005,-3.2011063e-005
26400548.513328,-3.2931919e-005,6.5408814e-005
26500551.857922,-3.2913482e-005,-8.4166495e-006
26600555.202515,-3.158618e-005,1.3389063e-005
26700558.547109,1.9720059e-005,-6.0019602e-006
26800561.891702,6.6581415e-005,-1.3611425e-005
26900565.236296,-3.370547e-005,1.9263418e-005
27000568.580889,4.056466e-006,2.139451e-005
27100571.925482,6.7388813e-005,-2.3780729e-005
27200575.270076,-5.1908578e-006,2.2693279e-005
27300578.614669,6.5144479e-005,-1.9481589e-005
27400581.959263,-2.679845e-006,-1.259307e-005
27500585.303856,-1.6592501e-005,-5.0021677e-005
27600588.64845,1.5190909e-005,1.7923197e-005
27700591.993043,4.3935675e-006,4.75421e-005
27800595.337637,5.5915439e-006,2.6240434e-005
27900598.68223,-3.7687627e-005,-9.9658364e-006
28000602.026824,1.843149e-005,-4.505227e-006
28100605.371417,-2.8586855e-005,1.2455053e-005
28200608.716011,-2.2569277e-005,-8.8653296e-006
28300612.060604,3.2230884e-005,2.5439824e-005
28400615.405197,-1.709866e-005,-0.00011524755
28500618.749791,-3.3160908e-005,-5.0852348e-005
28600622.094384,-1.8917684e-005,7.6901946e-005
28700625.438978,-2.6022772e-005,3.4463515e-005
28800628.783571,-1.0716889e-005,-1.3535395e-005
28900632.128165,-2.6502512e-005,6.5866643e-006
29000635.472758,8.3223269e-005,-3.4142201e-006
29100638.817352,3.358844e-005,5.2026451e-005
29200642.161945,7.5605044e-006,2.3107277e-006
29300645.506539,4.86672e-005,2.3833467e-005
29400648.851132,-3.9743452e-005,-6.3253865e-005
29500652.195726,4.3199365e-005,2.2123651e-005
29600655.540319,-4.2030701e-005,-1.6816546e-005
29700658.884913,1.3298589e-005,5.9421305e-005
29800662.229506,-3.4463254e-005,1.4338819e-005
29900665.574099,5.6431501e-005,6.1491883e-005
30000668.918693,-5.8856323e-005,-7.1165501e-005
30100672.263286,-4.9067152e-005,1.4101352e-005
30200675.60788,-3.4665893e-005,-3.6392339e-005
30300678.952473,-5.9145982e-006,1.1216399e-005
30400682.297067,-4.4385044e-005,-4.9568655e-007
30500685.64166,1.5485919e-005,-6.0173566e-006
30600688.986254,1.2303719e-005,-1.3511799e-005
30700692.330847,1.8438193e-006,2.1783862e-005
30800695.675441,2.9761239e-005,3.3351196e-005
30900699.020034,1.5566924e-005,7.4331228e-006
31000702.364628,2.7971494e-006,-4.4478711e-006
31100705.709221,-6.7211213e-006,-6.8049644e-006
31200709.053815,-6.7600372e-006,-5.400394e-006
31300712.398408,3.9333288e-005,-5.7519042e-006
31400715.743001,-5.8692713e-006,1.6682226e-005
31500719.087595,2.1881233e-005,-3.5416774e-006
31600722.432188,3.0823092e-005,-2.8522036e-005
31700725.776782,-1.7118018e-005,3.6479276e-005
31800729.121375,7.2120647e-006,9.261511e-006
31900732.465969,3.2732394e-006,1.6788164e-005
32000735.810562,-3.3379235e-006,7.9586916e-006
32100739.155156,2.1853897e-005,-3.2382362e-005
32200742.499749,-1.2852567e-005,2.0949799e-005
32300745.844343,-7.5719772e-006,1.5004985e-005
32400749.188936,1.4766474e-005,-6.6993553e-006
32500752.53353,-2.5949872e-005,6.3976622e-006
32600755.878123,-4.2639669e-005,-4.8889633e-006
32700759.222716,-5.0824914e-005,-2.6945376e-005
32800762.56731,-3.3132397e-005,-1.2749516e-005
32900765.911903,-1.6161557e-005,-3.5290288e-006
33000769.256497,-4.5127304e-006,1.6286196e-005
33100772.60109,-3.6374498e-005,2.0877485e-005
33200775.945684,2.5525798e-005,-1.986918e-005
33300779.290277,-2.2234324e-005,1.2706806e-005
33400782.634871,-8.486399e-007,4.6315519e-005
33500785.979464,4.3788954e-005,1.1821461e-005
33600789.324058,-2.1639853e-005,4.2874933e-007
33700792.668651,-1.7794897e-005,-4.3748176e-005
33800796.013245,-1.298482e-005,-2.045184e-005
33900799.357838,-3.5311288e-005,6.7669651e-005
34000802.702432,3.0989304e-005,-2.5671921e-005
34100806.047025,2.3871966e-005,1.8642821e-005
34200809.391618,1.2547786e-005,2.1959531e-005
34300812.736212,-2.2495879e-005,-3.7714566e-005
34400816.080805,-5.9240519e-005,-2.1961912e-005
34500819.425399,2.3532522e-005,2.1646244e-006
34600822.769992,-3.3537501e-005,5.6006488e-006
34700826.114586,-3.1297965e-005,3.2514748e-005
34800829.459179,-1.6412563e-005,3.8697699e-006
34900832.803773,9.9197123e-006,-5.4138814e-005
35000836.148366,1.1392332e-005,-4.8739548e-006
35100839.49296,-1.8753675e-005,1.6058089e-005
35200842.837553,4.9147584e-006,-2.5226675e-005
35300846.182147,-2.8386237e-005,9.7486247e-007
35400849.52674,-2.189356e-005,2.2646218e-005
35500852.871333,-7.5085808e-007,-4.9086157e-005
35600856.215927,-1.3622036e-005,-7.8539597e-006
35700859.56052,-1.976849e-006,2.2045075e-005
35800862.905114,2.9244116e-005,4.1003368e-006
35900866.249707,-7.6904835e-006,1.8659086e-005
36000869.594301,-1.6256774e-005,1.1752994e-006
36100872.938894,7.5007852e-006,1.4714201e-005
36200876.283488,7.2769685e-006,2.8975965e-005
36300879.628081,1.4689574e-006,1.285914e-005
36400882.972675,3.8771843e-005,1.0194241e-005
36500886.317268,3.4019471e-005,1.7690394e-005
36600889.661862,1.7616547e-005,2.8773005e-005
36700893.006455,-8.0116752e-006,-1.3944432e-005
36800896.351049,-2.1923794e-005,2.3510667e-005
36900899.695642,1.2927532e-005,-1.535226e-005
37000903.040235,2.220494e-005,2.5593627e-005
37100906.384829,1.4375677e-005,3.7646112e-006
37200909.729422,-2.8052269e-005,-1.2548328e-005
37300913.074016,9.2317268e-006,-1.38819e-005
37400916.418609,-3.3448254e-005,-8.7474882e-006
37500919.763203,6.7174574e-006,-1.0825854e-005
37600923.107796,-3.4456814e-005,-4.589785e-006
37700926.45239,9.8500295e-006,-2.8690172e-006
37800929.796983,-1.5735302e-005,-1.4607004e-005
37900933.141577,2.399967e-005,1.4677647e-005
38000936.48617,4.3135387e-005,2.7625711e-005
38100939.830764,2.6111678e-005,4.0779923e-006
38200943.175357,-1.4377318e-005,-2.0491339e-006
38300946.51995,-9.0909134e-006,-8.0541377e-006
38400949.864544,-1.9930287e-005,-8.4190651e-006
38500953.209137,2.8584986e-005,-8.4000385e-006
38600956.553731,3.295342e-005,5.3590079e-006
38700959.898324,3.2952871e-006,1.4001359e-005
38800963.242918,-1.7375776e-005,4.6630044e-005
38900966.587511,8.7653862e-006,2.1707798e-005
39000969.932105,1.2699244e-005,-1.4445069e-005
39100973.276698,-1.6895478e-006,-4.1112858e-006
39200976.621292,1.6496904e-005,-2.6107102e-005
39300979.965885,-4.3048267e-009,-2.9474836e-006
39400983.310479,3.0937317e-005,-1.8373281e-005
39500986.655072,-1.6827948e-006,-2.8167195e-005
39600989.999666,4.7870317e-006,3.2214022e-005
39700993.344259,-5.8506439e-006,-4.3227092e-006
39800996.688852,-7.9173333e-006,4.9769169e-006
39901000.033446,-6.2521522e-006,-4.7247272e-006
40001003.378039,-8.3220482e-007,-2.0813623e-005
40101006.722633,-4.5751067e-006,7.0592168e-006
40201010.067226,-6.5750473e-006,4.3898999e-005
40301013.41182,2.3874607e-005,-3.595253e-006
40401016.756413,1.377636e-005,3.4374841e-007
40501020.101007,-5.4286838e-006,-1.6300544e-005
40601023.4456,-4.5569377e-006,1.7368728e-005
40701026.790194,8.9426649e-006,2.4419291e-005
40801030.134787,-9.0367012e-006,9.5824371e-006
40901033.479381,1.6749329e-005,3.6801482e-006
41001036.823974,1.5905001e-005,5.6532576e-006
41101040.168568,-4.5017168e-006,6.3344378e-006
41201043.513161,-7.0863498e-006,1.220678e-005
41301046.857754,3.1534593e-005,2.2262891e-005
41401050.202348,-3.1332413e-005,-3.8042165e-006
41501053.546941,3.4182027e-005,4.973364e-006
41601056.891535,1.3166635e-006,2.9695597e-005
41701060.236128,1.5962453e-006,-1.047516e-005
41801063.580722,9.6036574e-006,-2.681842e-006
41901066.925315,4.2577594e-007,1.6471651e-005
42001070.269909,1.2718921e-005,-7.1857937e-007
42101073.614502,-9.8636665e-006,1.9903973e-005
42201076.959096,3.085854e-005,-1.8493079e-006
42301080.303689,4.450198e-005,-2.5400928e-005
42401083.648283,-1.8867642e-005,1.9153649e-005
42501086.992876,-1.5997917e-005,8.106731e-006
42601090.337469,3.5734415e-006,1.3976976e-006
42701093.682063,-2.5827278e-005,-2.624127e-005
42801097.026656,-1.6807819e-005,-9.4882826e-006
42901100.37125,1.4963733e-005,-2.0460306e-005
43001103.715843,1.6466885e-005,2.0212759e-005
43101107.060437,-1.5933292e-005,1.049221e-005
43201110.40503,-7.582863e-006,-2.0968078e-005
43301113.749624,1.6716007e-005,-5.881172e-006
43401117.094217,1.0123374e-005,-7.0337805e-006
43501120.438811,-1.1713031e-005,-1.115845e-005
43601123.783404,2.0344176e-005,-7.7313562e-006
43701127.127998,2.1623807e-006,1.8425482e-005
43801130.472591,-9.0012163e-006,-7.3306746e-006
43901133.817185,-5.1040843e-006,6.0525072e-005
44001137.161778,4.2350111e-006,-4.595795e-006
44101140.506371,2.0586192e-006,-1.2640531e-006
44201143.850965,-1.2187819e-005,2.6708032e-005
44301147.195558,7.9518722e-006,1.6423535e-005
44401150.540152,5.6288009e-006,3.1910956e-006
44501153.884745,1.932287e-005,1.775801e-005
44601157.229339,-7.147396e-006,-2.426336e-007
44701160.573932,-9.5007381e-006,8.3240147e-006
44801163.918526,3.4163502e-006,-1.6797858e-005
44901167.263119,1.8875238e-005,-6.5696722e-006
45001170.607713,2.6782234e-006,-7.3020828e-006
45101173.952306,-4.6879915e-008,5.8126184e-006
45201177.2969,9.3899689e-006,-1.2323136e-005
45301180.641493,2.1134714e-005,-5.3696608e-006
45401183.986086,-1.105686e-005,8.0261443e-006
45501187.33068,-1.4105079e-005,-4.3592654e-006
45601190.675273,-2.1526982e-006,6.20636e-006
45701194.019867,8.4023995e-006,-2.0878995e-005
45801197.36446,-1.0732113e-007,2.1697308e-006
45901200.709054,6.1766268e-006,-3.5896733e-006
46001204.053647,-1.4832259e-005,7.8000676e-006
46101207.398241,-6.739022e-006,3.4300911e-007
46201210.742834,-1.3956314e-005,-4.0159107e-006
46301214.087428,4.253784e-006,-1.1725417e-005
46401217.432021,-1.8783693e-006,2.7359931e-005
46501220.776615,-1.885281e-005,9.2493865e-006
46601224.121208,-1.2509787e-005,-3.1395211e-006
46701227.465802,-3.5532978e-006,-3.7928216e-006
46801230.810395,-8.5166266e-006,1.8291704e-006
46901234.154988,-6.2736435e-006,3.3582201e-006
47001237.499582,2.2668804e-005,-1.3506328e-005
47101240.844175,-1.5612995e-005,-5.4054844e-006
47201244.188769,-2.0357125e-005,3.5086118e-006
47301247.533362,-1.0776126e-005,-3.1090742e-006
47401250.877956,-1.7995748e-005,-1.1785232e-005
47501254.222549,2.3892586e-005,2.8088214e-006
47601257.567143,2.442589e-005,1.3740889e-005
47701260.911736,2.2225679e-006,-2.405655e-005
47801264.25633,8.3630293e-006,1.2901841e-005
47901267.600923,2.0237672e-005,-1.4188201e-005
48001270.945517,-4.8553648e-006,-1.4607527e-005
48101274.29011,4.8744078e-006,-1.1423607e-005
48201277.634704,-1.1962023e-005,-3.1569343e-006
48301280.979297,-2.1963415e-005,-9.3901626e-006
48401284.32389,2.1679281e-005,-1.1799875e-005
48501287.668484,1.3065256e-005,-3.7393004e-006
48601291.013077,-1.3162326e-005,-1.9861175e-006
48701294.357671,-1.023295e-005,9.5881569e-006
48801297.702264,-1.160826e-005,-2.0647751e-005
48901301.046858,-4.4144481e-006,9.6402873e-006
49001304.391451,1.0413047e-005,-1.0021161e-005
49101307.736045,5.9508707e-006,-4.0951404e-006
49201311.080638,5.5221003e-006,6.8343938e-006
49301314.425232,-3.3902975e-006,-5.737134e-006
49401317.769825,-2.4798132e-006,9.6441936e-006
49501321.114419,-8.0691834e-006,7.7451277e-006
49601324.459012,9.9144418e-006,-2.0844185e-005
49701327.803605,-2.5778336e-005,7.7411114e-006
49801331.148199,1.7225631e-005,1.9774616e-005
49901334.492792,-1.8813913e-005,1.2156406e-005
50001337.837386,5.8245614e-006,-4.6066421e-006
50101341.181979,-2.4629264e-005,-2.1111748e-005
50201344.526573,-2.7084063e-005,-1.4710365e-005
50301347.871166,-2.1668335e-005,1.1270391e-005
50401351.21576,6.5981822e-006,8.6308328e-006
50501354.560353,-4.1330936e-006,1.1870191e-005
50601357.904947,-1.1656198e-005,1.4804372e-005
50701361.24954,7.8211851e-006,-1.5554102e-005
50801364.594134,2.1049352e-006,-1.0908398e-005
50901367.938727,-1.3688726e-006,1.7307049e-006
51001371.283321,8.6689545e-007,1.2489401e-005
51101374.627914,8.2083525e-006,1.0103827e-005
51201377.972507,-3.9843731e-006,2.3773035e-005
51301381.317101,7.4553368e-006,-9.5030155e-006
51401384.661694,7.0731007e-006,1.6702677e-005
51501388.006288,7.3756805e-006,-1.19047e-005
