!CSV A.01.01
!Agilent Technologies,N5227A,US51270345,A.09.80.20
!Agilent N5227A: A.09.80.20
!Date: Monday, November 26, 2018 16:02:34
!Source: Standard

BEGIN CH1_DATA
Freq(Hz),S22(REAL),S22(IMAG)
10000000,0.99920803,-0.018129708
10100003.344593,0.99962491,-0.01916662
10200006.689187,0.99989074,-0.019477393
10300010.03378,0.99943793,-0.019781804
10400013.378374,1.0004023,-0.019423973
10500016.722967,0.99952835,-0.020205939
10600020.067561,0.99998748,-0.019944474
10700023.412154,0.99972057,-0.020669613
10800026.756748,1.0000411,-0.020808648
10900030.101341,0.99936318,-0.021132315
11000033.445935,0.99971282,-0.021301044
11100036.790528,0.99996966,-0.021410786
11200040.135122,0.99932617,-0.021956177
11300043.479715,0.99991196,-0.022547809
11400046.824309,0.99981081,-0.021769622
11500050.168902,1.0002388,-0.022589285
11600053.513495,0.99910486,-0.022383768
11700056.858089,0.99931306,-0.022297096
11800060.202682,0.99962008,-0.022437615
11900063.547276,0.99979895,-0.02283833
12000066.891869,0.99953616,-0.022710014
12100070.236463,0.99915397,-0.023632105
12200073.581056,0.9990586,-0.023290418
12300076.92565,0.99993742,-0.023710594
12400080.270243,0.99967402,-0.02369353
12500083.614837,0.99994969,-0.023843646
12600086.95943,0.99968451,-0.024069637
12700090.304024,0.99974686,-0.024631441
12800093.648617,0.99971622,-0.024523938
12900096.99321,0.99971396,-0.024653599
13000100.337804,0.99965286,-0.024682716
13100103.682397,0.99982452,-0.025098462
13200107.026991,0.99921674,-0.02530586
13300110.371584,0.99987501,-0.025625395
13400113.716178,0.99975735,-0.02565513
13500117.060771,0.9995805,-0.025992796
13600120.405365,0.99991065,-0.026221357
13700123.749958,0.99966484,-0.026373463
13800127.094552,0.99950546,-0.026937766
13900130.439145,1.0001355,-0.026894234
14000133.783739,0.99911159,-0.027250389
14100137.128332,0.99956983,-0.027186032
14200140.472926,0.99965739,-0.027339481
14300143.817519,0.99946493,-0.027812803
14400147.162112,0.99987292,-0.028030919
14500150.506706,0.99988163,-0.028184976
14600153.851299,0.99942976,-0.028258085
14700157.195893,0.99955201,-0.028416999
14800160.540486,0.99964809,-0.028127799
14900163.88508,0.99970037,-0.028935129
15000167.229673,0.99954253,-0.029208146
15100170.574267,0.99972391,-0.028824439
15200173.91886,0.99980855,-0.02958593
15300177.263454,0.99942017,-0.029506499
15400180.608047,0.99957776,-0.029946104
15500183.952641,0.99963748,-0.030004309
15600187.297234,0.99955767,-0.030286225
15700190.641827,0.99961221,-0.030442428
15800193.986421,0.99974757,-0.030492142
15900197.331014,0.99920893,-0.030823704
16000200.675608,0.9996559,-0.03109991
16100204.020201,0.99961883,-0.031473808
16200207.364795,0.99964839,-0.031193301
16300210.709388,0.99942422,-0.031495389
16400214.053982,0.99949396,-0.031670243
16500217.398575,0.99927545,-0.032092087
16600220.743169,0.99952793,-0.032327451
16700224.087762,0.99949962,-0.032263588
16800227.432356,0.9992705,-0.032418814
16900230.776949,0.99927324,-0.032743022
17000234.121543,0.99953181,-0.033030573
17100237.466136,0.99976081,-0.032968678
17200240.810729,0.99953634,-0.033505417
17300244.155323,0.99928856,-0.033287894
17400247.499916,0.99951279,-0.033591274
17500250.84451,0.99934638,-0.034042038
17600254.189103,0.99931204,-0.033988174
17700257.533697,0.99907333,-0.034170531
17800260.87829,0.99962753,-0.03449529
17900264.222884,0.9993853,-0.034553315
18000267.567477,0.99952596,-0.034710657
18100270.912071,0.99942726,-0.035116952
18200274.256664,0.99916214,-0.035229363
18300277.601258,0.9995079,-0.035580143
18400280.945851,0.99933809,-0.035613049
18500284.290444,0.99954748,-0.035586156
18600287.635038,0.99943042,-0.036088191
18700290.979631,0.99942786,-0.036049768
18800294.324225,0.99935812,-0.03642562
18900297.668818,0.99951565,-0.036802869
19000301.013412,0.99929321,-0.036773331
19100304.358005,0.999134,-0.03711924
19200307.702599,0.99928761,-0.037182029
19300311.047192,0.99925113,-0.037444331
19400314.391786,0.9995271,-0.037898075
19500317.736379,0.99944365,-0.038042627
19600321.080973,0.99955297,-0.037971925
19700324.425566,0.99908757,-0.038163573
19800327.77016,0.99931818,-0.03833336
19900331.114753,0.99957401,-0.038850244
20000334.459346,0.99916404,-0.038784701
20100337.80394,0.99913597,-0.038838573
20200341.148533,0.99929494,-0.03923589
20300344.493127,0.99933881,-0.039550241
20400347.83772,0.99927914,-0.039652228
20500351.182314,0.99900842,-0.039837234
20600354.526907,0.99896467,-0.040046327
20700357.871501,0.99902964,-0.040227499
20800361.216094,0.99922162,-0.040336896
20900364.560688,0.99901962,-0.040517256
21000367.905281,0.99892962,-0.040689956
21100371.249875,0.99888861,-0.040804449
21200374.594468,0.99920166,-0.041101735
21300377.939062,0.99925411,-0.041474864
21400381.283655,0.99908984,-0.041400518
21500384.628248,0.99914622,-0.041839078
21600387.972842,0.99894208,-0.04199215
21700391.317435,0.99909645,-0.042093534
21800394.662029,0.99911207,-0.04229787
21900398.006622,0.99906707,-0.042587224
22000401.351216,0.99917018,-0.042662024
22100404.695809,0.99898499,-0.042983893
22200408.040403,0.99892128,-0.04320528
22300411.384996,0.99897844,-0.043356352
22400414.72959,0.99884838,-0.043572862
22500418.074183,0.99905038,-0.043626968
22600421.418777,0.99917543,-0.043882374
22700424.76337,0.99912107,-0.044030182
22800428.107963,0.99896741,-0.044443768
22900431.452557,0.99897552,-0.044461582
23000434.79715,0.99895597,-0.04474964
23100438.141744,0.9991709,-0.044846538
23200441.486337,0.99893385,-0.045088176
23300444.830931,0.99904466,-0.045424633
23400448.175524,0.99882549,-0.045580268
23500451.520118,0.99884439,-0.045708179
23600454.864711,0.99880934,-0.045905262
23700458.209305,0.99899673,-0.045951325
23800461.553898,0.99883372,-0.04640213
23900464.898492,0.99874151,-0.046478428
24000468.243085,0.99896091,-0.046547085
24100471.587679,0.99884969,-0.046754844
24200474.932272,0.99885267,-0.04692325
24300478.276865,0.99872559,-0.047249183
24400481.621459,0.99892932,-0.04729915
24500484.966052,0.99888939,-0.047593143
24600488.310646,0.99887669,-0.04770555
24700491.655239,0.9988665,-0.048077133
24800494.999833,0.99881077,-0.048221003
24900498.344426,0.99866354,-0.048485983
25000501.68902,0.99877,-0.048616983
25100505.033613,0.99874651,-0.048828721
25200508.378207,0.99858117,-0.048997525
25300511.7228,0.99881214,-0.049130615
25400515.067394,0.99880385,-0.049333517
25500518.411987,0.99866802,-0.049541663
25600521.75658,0.99870068,-0.049757402
25700525.101174,0.99868691,-0.04986601
25800528.445767,0.99864471,-0.050060574
25900531.790361,0.99864715,-0.050340932
26000535.134954,0.99879271,-0.050563905
26100538.479548,0.99878377,-0.050739918
26200541.824141,0.99853855,-0.050783355
26300545.168735,0.99860227,-0.051002376
26400548.513328,0.99850023,-0.051284049
26500551.857922,0.99871671,-0.051651947
26600555.202515,0.99834639,-0.051754721
26700558.547109,0.99845791,-0.051972032
26800561.891702,0.99851447,-0.05208179
26900565.236296,0.99847341,-0.052380886
27000568.580889,0.99850637,-0.052375089
27100571.925482,0.99853516,-0.052718684
27200575.270076,0.99850088,-0.052931849
27300578.614669,0.99855816,-0.053114962
27400581.959263,0.99859565,-0.053367466
27500585.303856,0.99845243,-0.053587645
27600588.64845,0.99852479,-0.053752936
27700591.993043,0.99845922,-0.053828903
27800595.337637,0.99837852,-0.054058753
27900598.68223,0.99839467,-0.054316029
28000602.026824,0.99842727,-0.054467149
28100605.371417,0.9984405,-0.05464061
28200608.716011,0.99864048,-0.054720994
28300612.060604,0.99845177,-0.054979935
28400615.405197,0.99832892,-0.055252973
28500618.749791,0.99846798,-0.055487473
28600622.094384,0.99852455,-0.055676486
28700625.438978,0.99830002,-0.055868667
28800628.783571,0.99831086,-0.05603569
28900632.128165,0.99823976,-0.056273881
29000635.472758,0.99814159,-0.05634167
29100638.817352,0.99838024,-0.056631222
29200642.161945,0.99813545,-0.056615129
29300645.506539,0.99847972,-0.056977224
29400648.851132,0.99820471,-0.05704847
29500652.195726,0.99822474,-0.057356957
29600655.540319,0.99822772,-0.057452701
29700658.884913,0.99812627,-0.05771324
29800662.229506,0.99833906,-0.057908136
29900665.574099,0.99833745,-0.058065612
30000668.918693,0.99805856,-0.058223661
30100672.263286,0.99824351,-0.058552366
30200675.60788,0.99815845,-0.058795407
30300678.952473,0.99809355,-0.058960721
30400682.297067,0.99828321,-0.059049003
30500685.64166,0.99824512,-0.059373144
30600688.986254,0.99820918,-0.059488688
30700692.330847,0.99818158,-0.059760109
30800695.675441,0.99810505,-0.059846412
30900699.020034,0.99803525,-0.060098317
31000702.364628,0.99804813,-0.060133327
31100705.709221,0.99796855,-0.060504802
31200709.053815,0.99822259,-0.060701523
31300712.398408,0.99819744,-0.060946275
31400715.743001,0.99806428,-0.060973097
31500719.087595,0.99801403,-0.061363138
31600722.432188,0.99802858,-0.061394643
31700725.776782,0.99810785,-0.061736092
31800729.121375,0.99788052,-0.061821114
31900732.465969,0.9980002,-0.062043976
32000735.810562,0.99790561,-0.06220739
32100739.155156,0.99788374,-0.062347155
32200742.499749,0.99806082,-0.062773913
32300745.844343,0.99790835,-0.062792785
32400749.188936,0.99800378,-0.063127816
32500752.53353,0.99784946,-0.063178025
32600755.878123,0.99801898,-0.063426651
32700759.222716,0.99804753,-0.063658476
32800762.56731,0.99790955,-0.063770965
32900765.911903,0.99784112,-0.064026915
33000769.256497,0.99791038,-0.064066224
33100772.60109,0.99793088,-0.064376578
33200775.945684,0.99775803,-0.064599514
33300779.290277,0.99759674,-0.06484016
33400782.634871,0.99774885,-0.064918764
33500785.979464,0.997859,-0.065013438
33600789.324058,0.997666,-0.065308392
33700792.668651,0.99789041,-0.065610304
33800796.013245,0.9977966,-0.065624267
33900799.357838,0.9977209,-0.065927505
34000802.702432,0.99775934,-0.066111021
34100806.047025,0.99771184,-0.066405803
34200809.391618,0.9976685,-0.066445656
34300812.736212,0.99782676,-0.0667006
34400816.080805,0.99758989,-0.066866226
34500819.425399,0.99777907,-0.067078844
34600822.769992,0.99768668,-0.067332692
34700826.114586,0.99772429,-0.06740813
34800829.459179,0.99775928,-0.067677908
34900832.803773,0.99761349,-0.067827612
35000836.148366,0.99764597,-0.068001464
35100839.49296,0.99769324,-0.068155326
35200842.837553,0.99748915,-0.068395674
35300846.182147,0.99761552,-0.068797067
35400849.52674,0.99761385,-0.068855338
35500852.871333,0.99762279,-0.068896569
35600856.215927,0.99763298,-0.069223084
35700859.56052,0.99769962,-0.069378592
35800862.905114,0.99755102,-0.069663793
35900866.249707,0.99746323,-0.069757201
36000869.594301,0.99745899,-0.070017934
36100872.938894,0.99748212,-0.070202075
36200876.283488,0.9974122,-0.070405535
36300879.628081,0.99744558,-0.070513688
36400882.972675,0.99733043,-0.070772216
36500886.317268,0.9973622,-0.071020514
36600889.661862,0.99739748,-0.071205683
36700893.006455,0.99739498,-0.071272746
36800896.351049,0.99734092,-0.071499109
36900899.695642,0.99726993,-0.071738794
37000903.040235,0.99732494,-0.071967855
37100906.384829,0.9972738,-0.072100826
37200909.729422,0.99722326,-0.072313294
37300913.074016,0.99717301,-0.072495662
37400916.418609,0.99708062,-0.072679982
37500919.763203,0.9972344,-0.072924443
37600923.107796,0.99727505,-0.073110849
37700926.45239,0.99720079,-0.073344171
37800929.796983,0.99730241,-0.073462442
37900933.141577,0.99719018,-0.073707484
38000936.48617,0.99713045,-0.07388065
38100939.830764,0.99721205,-0.074143
38200943.175357,0.99717474,-0.074246176
38300946.51995,0.9972052,-0.074541703
38400949.864544,0.99700403,-0.074640952
38500953.209137,0.99701482,-0.074822657
38600956.553731,0.99700332,-0.075041957
38700959.898324,0.99714446,-0.075261727
38800963.242918,0.99709737,-0.075394012
38900966.587511,0.99693966,-0.075599611
39000969.932105,0.997132,-0.075779602
39100973.276698,0.99700516,-0.076061681
39200976.621292,0.9970389,-0.076233551
39300979.965885,0.99707377,-0.076332904
39400983.310479,0.99695295,-0.076610871
39500986.655072,0.996984,-0.076716557
39600989.999666,0.99695092,-0.076947667
39700993.344259,0.99692047,-0.07717517
39800996.688852,0.99690837,-0.077348799
39901000.033446,0.99694854,-0.077571325
40001003.378039,0.99693191,-0.077730954
40101006.722633,0.99698275,-0.077936463
40201010.067226,0.99686545,-0.078146525
40301013.41182,0.99684262,-0.078292981
40401016.756413,0.99691337,-0.078531027
40501020.101007,0.99695033,-0.078718185
40601023.4456,0.99681091,-0.078868635
40701026.790194,0.99676198,-0.07908532
40801030.134787,0.99678135,-0.079247348
40901033.479381,0.9968639,-0.079524159
41001036.823974,0.99680501,-0.079629041
41101040.168568,0.99670851,-0.079935335
41201043.513161,0.99680597,-0.08002609
41301046.857754,0.99667394,-0.08018332
41401050.202348,0.99665797,-0.08037366
41501053.546941,0.99659133,-0.080702394
41601056.891535,0.99666524,-0.080796257
41701060.236128,0.99662906,-0.081034325
41801063.580722,0.99652934,-0.081206605
41901066.925315,0.99658275,-0.081422448
42001070.269909,0.99664092,-0.081675723
42101073.614502,0.9965772,-0.08187823
42201076.959096,0.99651766,-0.081962392
42301080.303689,0.99654239,-0.082188882
42401083.648283,0.99648738,-0.082360402
42501086.992876,0.99656832,-0.08256612
42601090.337469,0.99643403,-0.082801841
42701093.682063,0.9964065,-0.08294595
42801097.026656,0.99630451,-0.083086155
42901100.37125,0.99628443,-0.083302327
43001103.715843,0.9965198,-0.083535701
43101107.060437,0.99635077,-0.083772056
43201110.40503,0.99635315,-0.083930388
43301113.749624,0.99638104,-0.084142156
43401117.094217,0.99630076,-0.084393978
43501120.438811,0.99623489,-0.084580302
43601123.783404,0.99630231,-0.084716871
43701127.127998,0.99632448,-0.084947973
43801130.472591,0.99623692,-0.084980801
43901133.817185,0.99634111,-0.085264176
44001137.161778,0.99616915,-0.085434578
44101140.506371,0.9963485,-0.08565899
44201143.850965,0.99626487,-0.085917786
44301147.195558,0.99625254,-0.086045034
44401150.540152,0.99619043,-0.086193174
44501153.884745,0.99611562,-0.086418778
44601157.229339,0.99603844,-0.086612672
44701160.573932,0.99609071,-0.086748675
44801163.918526,0.9960919,-0.08692576
44901167.263119,0.99618965,-0.087156974
45001170.607713,0.99598885,-0.087417707
45101173.952306,0.99604702,-0.087573826
45201177.2969,0.99606568,-0.087823227
45301180.641493,0.99602413,-0.087908342
45401183.986086,0.99611527,-0.088144042
45501187.33068,0.99599874,-0.088337161
45601190.675273,0.99595815,-0.088462584
45701194.019867,0.99601477,-0.088711195
45801197.36446,0.99600333,-0.088917345
45901200.709054,0.99592191,-0.089197531
46001204.053647,0.9959504,-0.089316867
46101207.398241,0.99599946,-0.089439698
46201210.742834,0.9958666,-0.089712128
46301214.087428,0.99598372,-0.089886636
46401217.432021,0.99579996,-0.090139389
46501220.776615,0.99579448,-0.090303853
46601224.121208,0.99582732,-0.090426184
46701227.465802,0.99580175,-0.090671763
46801230.810395,0.99576283,-0.09082967
46901234.154988,0.99570662,-0.090979576
47001237.499582,0.99572766,-0.091259263
47101240.844175,0.99577463,-0.091400668
47201244.188769,0.99566257,-0.091561742
47301247.533362,0.99571204,-0.091785051
47401250.877956,0.99563521,-0.092028767
47501254.222549,0.99557883,-0.092160702
47601257.567143,0.99555302,-0.092422321
47701260.911736,0.99558842,-0.092597678
47801264.25633,0.99562424,-0.092747152
47901267.600923,0.99566752,-0.092900075
48001270.945517,0.99552923,-0.093165331
48101274.29011,0.99558049,-0.093286455
48201277.634704,0.99561524,-0.093602292
48301280.979297,0.99553305,-0.093718156
48401284.32389,0.99540716,-0.093951076
48501287.668484,0.99541485,-0.094054691
48601291.013077,0.9955126,-0.094335884
48701294.357671,0.9954021,-0.094463952
48801297.702264,0.99544054,-0.094676562
48901301.046858,0.99544358,-0.094880186
49001304.391451,0.99540782,-0.095069274
49101307.736045,0.99528813,-0.095248364
49201311.080638,0.99534327,-0.095458142
49301314.425232,0.99530685,-0.095693409
49401317.769825,0.9954083,-0.095865764
49501321.114419,0.99537444,-0.096111692
49601324.459012,0.99530321,-0.096251376
49701327.803605,0.99523419,-0.096389107
49801331.148199,0.99525535,-0.096668042
49901334.492792,0.99527818,-0.096804187
50001337.837386,0.99519587,-0.097007543
50101341.181979,0.99526197,-0.097237282
50201344.526573,0.9951877,-0.097428396
50301347.871166,0.99508607,-0.097615875
50401351.21576,0.99516958,-0.097838916
50501354.560353,0.9951573,-0.097925499
50601357.904947,0.99509692,-0.098149315
50701361.24954,0.99501258,-0.098340884
50801364.594134,0.99508804,-0.098528422
50901367.938727,0.99508393,-0.09875717
51001371.283321,0.99511588,-0.098904811
51101374.627914,0.99496996,-0.099142589
51201377.972507,0.99486518,-0.099328287
51301381.317101,0.99480927,-0.09949933
51401384.661694,0.99491006,-0.099695854
51501388.006288,0.99495411,-0.099946991
51601391.350881,0.99495959,-0.10007817
51701394.695475,0.99490649,-0.10032418
51801398.040068,0.99493033,-0.10053053
51901401.384662,0.99477172,-0.10064427
52001404.729255,0.99477935,-0.10087215
52101408.073849,0.99480051,-0.10104901
52201411.418442,0.9948135,-0.10122693
52301414.763036,0.99478477,-0.10140511
52401418.107629,0.99467993,-0.10160547
52501421.452222,0.99473029,-0.10179988
52601424.796816,0.99473661,-0.10205633
52701428.141409,0.99480379,-0.10219468
52801431.486003,0.99470967,-0.10235486
52901434.830596,0.99476182,-0.10254922
53001438.17519,0.99455547,-0.10255471
53101441.519783,0.99463207,-0.10283943
53201444.864377,0.99479419,-0.10309014
53301448.20897,0.99447197,-0.10322817
53401451.553564,0.99450928,-0.10343169
53501454.898157,0.9944551,-0.1037541
53601458.242751,0.99440318,-0.10392457
53701461.587344,0.99443442,-0.10401356
53801464.931938,0.99440306,-0.10424658
53901468.276531,0.99430591,-0.10430076
54001471.621124,0.99441957,-0.10458003
54101474.965718,0.99416137,-0.10481088
54201478.310311,0.99429137,-0.10496607
54301481.654905,0.99415314,-0.10515496
54401484.999498,0.9943006,-0.10535927
54501488.344092,0.99450964,-0.10533136
54601491.688685,0.99438387,-0.10565058
54701495.033279,0.99433905,-0.10604815
54801498.377872,0.99435908,-0.10622397
54901501.722466,0.99426454,-0.10642861
55001505.067059,0.99430865,-0.10646226
55101508.411653,0.99418783,-0.10674654
55201511.756246,0.99402249,-0.10694388
55301515.100839,0.9940896,-0.10714544
55401518.445433,0.99399412,-0.10737884
55501521.790026,0.9942255,-0.10727035
55601525.13462,0.99406374,-0.10767858
55701528.479213,0.99402189,-0.10771779
55801531.823807,0.99413651,-0.10796774
55901535.1684,0.99393302,-0.10839777
56001538.512994,0.99401057,-0.10833369
56101541.857587,0.99381268,-0.10871381
56201545.202181,0.99405175,-0.10878022
56301548.546774,0.99401355,-0.10892811
56401551.891368,0.99380767,-0.10903911
56501555.235961,0.99399483,-0.10931298
56601558.580555,0.99389446,-0.10960913
56701561.925148,0.99387902,-0.10982693
56801565.269741,0.99367148,-0.10993171
56901568.614335,0.99372053,-0.11016729
57001571.958928,0.99379748,-0.11038617
57101575.303522,0.99376839,-0.1105261
57201578.648115,0.99351561,-0.11055363
57301581.992709,0.99365932,-0.11075625
57401585.337302,0.9937914,-0.11114298
57501588.681896,0.99371648,-0.11136628
57601592.026489,0.99366528,-0.11143725
57701595.371083,0.99372387,-0.11175184
57801598.715676,0.99362445,-0.11186258
57901602.06027,0.99367195,-0.11214317
58001605.404863,0.99361205,-0.11229781
58101608.749457,0.99348783,-0.11241765
58201612.09405,0.99357831,-0.11260636
58301615.438643,0.99360973,-0.11280891
58401618.783237,0.99354488,-0.11299882
58501622.12783,0.99341434,-0.11322533
58601625.472424,0.99347872,-0.11353748
58701628.817017,0.99351877,-0.11356013
