!CSV A.01.01
!Agilent Technologies,N5227A,US51270345,A.09.80.20
!Agilent N5227A: A.09.80.20
!Date: Monday, November 26, 2018 15:55:47
!Source: Standard

BEGIN CH1_DATA
Freq(Hz),S11(REAL),S11(IMAG)
10000000,0.99997973,-0.011225596
10100003.344593,1.0007395,-0.011248981
10200006.689187,1.0006193,-0.011594356
10300010.03378,1.000015,-0.011494989
10400013.378374,0.99990612,-0.011060637
10500016.722967,1.0005293,-0.011273628
10600020.067561,0.9998138,-0.01197281
10700023.412154,0.99996299,-0.011695368
10800026.756748,1.0001215,-0.011751962
10900030.101341,1.0003029,-0.012394735
11000033.445935,0.999722,-0.011767578
11100036.790528,1.0000612,-0.012447744
11200040.135122,1.0000938,-0.012286429
11300043.479715,0.99914235,-0.012465379
11400046.824309,0.99985826,-0.012419609
11500050.168902,0.99976969,-0.012744825
11600053.513495,0.9996143,-0.012994771
11700056.858089,1.0000455,-0.01296241
11800060.202682,0.99982929,-0.013025887
11900063.547276,0.99960631,-0.013358179
12000066.891869,0.99976116,-0.01347706
12100070.236463,0.9995504,-0.013262815
12200073.581056,0.99964356,-0.013681817
12300076.92565,0.99985021,-0.013931572
12400080.270243,1.0001391,-0.013813443
12500083.614837,0.99983317,-0.014184993
12600086.95943,1.0001131,-0.013636908
12700090.304024,1.0000516,-0.014175121
12800093.648617,0.99918395,-0.013529873
12900096.99321,0.99983108,-0.014363077
13000100.337804,0.99971342,-0.01393511
13100103.682397,0.99958289,-0.014526713
13200107.026991,1.0004053,-0.014480643
13300110.371584,0.99960792,-0.014559637
13400113.716178,1.0003963,-0.014819508
13500117.060771,0.99954838,-0.014728927
13600120.405365,0.99976051,-0.014886377
13700123.749958,0.99957585,-0.015251585
13800127.094552,0.9998827,-0.01487533
13900130.439145,0.99994624,-0.015562354
14000133.783739,0.9993695,-0.01529198
14100137.128332,0.99975127,-0.015220621
14200140.472926,1.0001104,-0.015538487
14300143.817519,0.99973667,-0.015396345
14400147.162112,0.99980175,-0.015589459
14500150.506706,0.9995901,-0.015760187
14600153.851299,0.99986005,-0.015751539
14700157.195893,0.99955237,-0.016143003
14800160.540486,1.0000192,-0.016705224
14900163.88508,0.99961579,-0.016454177
15000167.229673,0.99967581,-0.01604091
15100170.574267,0.99989796,-0.016420376
15200173.91886,0.99968833,-0.016743073
15300177.263454,0.99976408,-0.016705353
15400180.608047,0.99961084,-0.016661547
15500183.952641,0.99981391,-0.01678928
15600187.297234,1.0001098,-0.016795995
15700190.641827,0.99999553,-0.016937034
15800193.986421,0.99989724,-0.017377352
15900197.331014,0.99968904,-0.017406167
16000200.675608,0.99976325,-0.017264584
16100204.020201,0.99969083,-0.017354155
16200207.364795,0.99957263,-0.017843183
16300210.709388,0.9998439,-0.017789101
16400214.053982,0.99979007,-0.01780924
16500217.398575,0.99978817,-0.017979251
16600220.743169,0.99966449,-0.017584644
16700224.087762,0.99983251,-0.017807456
16800227.432356,0.99983186,-0.018418055
16900230.776949,0.9997319,-0.018295426
17000234.121543,0.99960142,-0.018647389
17100237.466136,0.99955028,-0.018816069
17200240.810729,0.99980456,-0.018592538
17300244.155323,0.99996042,-0.018765999
17400247.499916,0.99960989,-0.018818272
17500250.84451,0.99969804,-0.018906772
17600254.189103,0.99981713,-0.019128991
17700257.533697,0.9999091,-0.01912947
17800260.87829,0.9995681,-0.019431978
17900264.222884,0.99945706,-0.019484529
18000267.567477,0.99972022,-0.019155223
18100270.912071,0.99978614,-0.019675672
18200274.256664,0.99958783,-0.019720292
18300277.601258,0.99994045,-0.020103335
18400280.945851,0.99981797,-0.019737145
18500284.290444,0.99959469,-0.019946204
18600287.635038,0.99981964,-0.019990316
18700290.979631,0.99976552,-0.02030443
18800294.324225,0.99956596,-0.020311432
18900297.668818,0.99968517,-0.020553663
19000301.013412,0.99964738,-0.020454647
19100304.358005,0.99932736,-0.020964347
19200307.702599,0.99990237,-0.020711858
19300311.047192,0.99970138,-0.0208981
19400314.391786,0.99959159,-0.021057118
19500317.736379,0.99976271,-0.020808151
19600321.080973,0.99970722,-0.021255912
19700324.425566,0.99953538,-0.021230267
19800327.77016,0.99971288,-0.021255165
19900331.114753,0.99958563,-0.021357574
20000334.459346,0.99962497,-0.021738093
20100337.80394,0.99947375,-0.021724178
20200341.148533,0.99961799,-0.021841042
20300344.493127,0.9996202,-0.021820888
20400347.83772,0.99978238,-0.022109121
20500351.182314,0.99967426,-0.022153182
20600354.526907,0.99955434,-0.022146959
20700357.871501,0.99967271,-0.022473041
20800361.216094,0.99947304,-0.022468641
20900364.560688,0.99978358,-0.022372022
21000367.905281,0.99959224,-0.022405779
21100371.249875,0.99943078,-0.022742562
21200374.594468,0.99959552,-0.023065215
21300377.939062,0.99951088,-0.023111669
21400381.283655,0.99945468,-0.022958549
21500384.628248,0.99947882,-0.023155732
21600387.972842,0.99955708,-0.023253759
21700391.317435,0.99953234,-0.023194009
21800394.662029,0.99963599,-0.023476303
21900398.006622,0.9995622,-0.023662295
22000401.351216,0.99963486,-0.023671355
22100404.695809,0.99947059,-0.023870019
22200408.040403,0.99962151,-0.023812493
22300411.384996,0.9995169,-0.024040965
22400414.72959,0.99951291,-0.023969667
22500418.074183,0.99948841,-0.024068702
22600421.418777,0.99961138,-0.024134697
22700424.76337,0.99961764,-0.024488179
22800428.107963,0.99934554,-0.024416966
22900431.452557,0.99972898,-0.024584714
23000434.79715,0.99941391,-0.024852773
23100438.141744,0.99945897,-0.02473503
23200441.486337,0.99955577,-0.025025694
23300444.830931,0.9993012,-0.025012651
23400448.175524,0.99939501,-0.025122048
23500451.520118,0.9994241,-0.025066616
23600454.864711,0.99930626,-0.025399679
23700458.209305,0.99947268,-0.025581846
23800461.553898,0.99952632,-0.025497103
23900464.898492,0.9993434,-0.025502814
24000468.243085,0.99940562,-0.025628036
24100471.587679,0.9993704,-0.026043961
24200474.932272,0.99950081,-0.025880883
24300478.276865,0.99924546,-0.026293457
24400481.621459,0.99937052,-0.02619905
24500484.966052,0.99941343,-0.026322277
24600488.310646,0.99932522,-0.026313951
24700491.655239,0.99936897,-0.026609892
24800494.999833,0.99969429,-0.026809346
24900498.344426,0.99960399,-0.026754856
25000501.68902,0.99944752,-0.026845261
25100505.033613,0.99943089,-0.026759489
25200508.378207,0.99940807,-0.026981115
25300511.7228,0.99934494,-0.027128221
25400515.067394,0.99949646,-0.027168257
25500518.411987,0.99931943,-0.027265312
25600521.75658,0.99960494,-0.027539296
25700525.101174,0.99951452,-0.027567321
25800528.445767,0.99948728,-0.027632412
25900531.790361,0.99937886,-0.027762285
26000535.134954,0.9991073,-0.027876148
26100538.479548,0.99930662,-0.027854079
26200541.824141,0.99931592,-0.028113039
26300545.168735,0.99944222,-0.028310101
26400548.513328,0.99945307,-0.028413525
26500551.857922,0.99948066,-0.02853349
26600555.202515,0.999336,-0.028482586
26700558.547109,0.99919343,-0.028541442
26800561.891702,0.99921983,-0.028767701
26900565.236296,0.99932492,-0.028691627
27000568.580889,0.99929363,-0.029029211
27100571.925482,0.99938542,-0.029030172
27200575.270076,0.99923307,-0.029171299
27300578.614669,0.99947166,-0.029295532
27400581.959263,0.99945003,-0.029376915
27500585.303856,0.99936515,-0.029383067
27600588.64845,0.9993127,-0.029489325
27700591.993043,0.99933255,-0.029576948
27800595.337637,0.9991554,-0.029870566
27900598.68223,0.9993065,-0.029857134
28000602.026824,0.99932992,-0.030001586
28100605.371417,0.99932855,-0.029994512
28200608.716011,0.99951673,-0.030156633
28300612.060604,0.99924475,-0.030363873
28400615.405197,0.99945718,-0.030480141
28500618.749791,0.99938309,-0.030473426
28600622.094384,0.99918711,-0.030651495
28700625.438978,0.99936032,-0.03079034
28800628.783571,0.99939889,-0.030887531
28900632.128165,0.99933368,-0.030807463
29000635.472758,0.99934912,-0.030980486
29100638.817352,0.99931782,-0.030984472
29200642.161945,0.99929947,-0.031304192
29300645.506539,0.99906099,-0.031402629
29400648.851132,0.99923438,-0.031551383
29500652.195726,0.99921066,-0.031601593
29600655.540319,0.99924147,-0.031473774
29700658.884913,0.99912816,-0.031777304
29800662.229506,0.99916387,-0.031916041
29900665.574099,0.99911451,-0.032101434
30000668.918693,0.99934554,-0.032018252
30100672.263286,0.99917823,-0.032194007
30200675.60788,0.99909866,-0.032313745
30300678.952473,0.99915004,-0.03225546
30400682.297067,0.99922663,-0.032509841
30500685.64166,0.99912208,-0.032578431
30600688.986254,0.99920738,-0.032680612
30700692.330847,0.99915606,-0.032759529
30800695.675441,0.99922204,-0.032888863
30900699.020034,0.99909145,-0.033055212
31000702.364628,0.99916518,-0.033087458
31100705.709221,0.99927747,-0.033158813
31200709.053815,0.99909228,-0.033327248
31300712.398408,0.99911535,-0.033406995
31400715.743001,0.9991172,-0.033624269
31500719.087595,0.9990285,-0.033646621
31600722.432188,0.99922699,-0.033738151
31700725.776782,0.99903679,-0.033902574
31800729.121375,0.99912608,-0.03395693
31900732.465969,0.99917006,-0.034074273
32000735.810562,0.99914187,-0.034207698
32100739.155156,0.99904788,-0.034315541
32200742.499749,0.99906921,-0.0344286
32300745.844343,0.99903864,-0.034458525
32400749.188936,0.99908119,-0.034465116
32500752.53353,0.99914432,-0.034714501
32600755.878123,0.99894559,-0.034895554
32700759.222716,0.99896967,-0.03495184
32800762.56731,0.99911726,-0.034961954
32900765.911903,0.99902916,-0.035106316
33000769.256497,0.99909723,-0.035206426
33100772.60109,0.99914986,-0.035309557
33200775.945684,0.99895877,-0.03537989
33300779.290277,0.99901372,-0.03553256
33400782.634871,0.99917233,-0.035674613
33500785.979464,0.99900758,-0.035765901
33600789.324058,0.99899167,-0.035929572
33700792.668651,0.99907225,-0.035958938
33800796.013245,0.99910802,-0.035964064
33900799.357838,0.99895209,-0.036150489
34000802.702432,0.99915171,-0.036238391
34100806.047025,0.99893874,-0.036377594
34200809.391618,0.99878782,-0.036493994
34300812.736212,0.99886388,-0.036711767
34400816.080805,0.99898028,-0.036679685
34500819.425399,0.99889475,-0.036876466
34600822.769992,0.99908096,-0.036960393
34700826.114586,0.99888313,-0.036968626
34800829.459179,0.99890971,-0.037183486
34900832.803773,0.99885195,-0.037173513
35000836.148366,0.99888319,-0.037382726
35100839.49296,0.99891138,-0.037393868
35200842.837553,0.99887884,-0.037533838
35300846.182147,0.99891442,-0.037702709
35400849.52674,0.99888837,-0.0376614
35500852.871333,0.998815,-0.037836019
35600856.215927,0.99888337,-0.037958965
35700859.56052,0.99903548,-0.038202032
35800862.905114,0.99888659,-0.038097199
35900866.249707,0.99889749,-0.038320106
36000869.594301,0.99890047,-0.038413789
36100872.938894,0.99884993,-0.038548823
36200876.283488,0.99878275,-0.038686819
36300879.628081,0.99870986,-0.038851172
36400882.972675,0.9987644,-0.038868695
36500886.317268,0.99897861,-0.038864899
36600889.661862,0.99873877,-0.039048623
36700893.006455,0.99888414,-0.039074477
36800896.351049,0.9988566,-0.039162055
36900899.695642,0.99884021,-0.039350044
37000903.040235,0.998887,-0.039469749
37100906.384829,0.99870747,-0.039545964
37200909.729422,0.99885339,-0.039586511
37300913.074016,0.99884039,-0.039680779
37400916.418609,0.99885076,-0.039840352
37500919.763203,0.99875063,-0.040000748
37600923.107796,0.99878472,-0.040066272
37700926.45239,0.99875325,-0.04014916
37800929.796983,0.99873948,-0.040171415
37900933.141577,0.99880546,-0.04042206
38000936.48617,0.99870604,-0.040511474
38100939.830764,0.99871552,-0.040561065
38200943.175357,0.99868226,-0.040762693
38300946.51995,0.99872172,-0.040831793
38400949.864544,0.99858487,-0.0409954
38500953.209137,0.99864137,-0.041034922
38600956.553731,0.9986642,-0.041130647
38700959.898324,0.99878895,-0.041219171
38800963.242918,0.99883658,-0.041452911
38900966.587511,0.99865532,-0.04148446
39000969.932105,0.99866182,-0.041469716
39100973.276698,0.99868667,-0.041566968
39200976.621292,0.99872547,-0.041778367
39300979.965885,0.9986223,-0.041846704
39400983.310479,0.9986729,-0.04207772
39500986.655072,0.99869955,-0.042075116
39600989.999666,0.99867523,-0.042234004
39700993.344259,0.99872255,-0.042280074
39800996.688852,0.99868721,-0.042368382
39901000.033446,0.99869007,-0.042446867
40001003.378039,0.99876088,-0.042620417
40101006.722633,0.9986499,-0.042802729
40201010.067226,0.99858755,-0.042796373
40301013.41182,0.99868178,-0.042906702
40401016.756413,0.99851537,-0.042997163
40501020.101007,0.99859041,-0.043073576
40601023.4456,0.99854738,-0.043244295
40701026.790194,0.99862707,-0.043314189
40801030.134787,0.99858809,-0.0433807
40901033.479381,0.9985643,-0.043523222
41001036.823974,0.99853188,-0.04371161
41101040.168568,0.998465,-0.043649685
41201043.513161,0.99852818,-0.043921169
41301046.857754,0.99857783,-0.043990161
41401050.202348,0.99848664,-0.044100322
41501053.546941,0.99850243,-0.04423302
41601056.891535,0.99853617,-0.044220693
41701060.236128,0.99851108,-0.044344716
41801063.580722,0.99848306,-0.044539131
41901066.925315,0.99852973,-0.044586755
42001070.269909,0.99847072,-0.044674464
42101073.614502,0.9984417,-0.044767648
42201076.959096,0.99851024,-0.044952378
42301080.303689,0.99849951,-0.044958442
42401083.648283,0.99836642,-0.04514898
42501086.992876,0.99849737,-0.045251835
42601090.337469,0.99844921,-0.045323826
42701093.682063,0.99845982,-0.045331031
42801097.026656,0.99847221,-0.045535237
42901100.37125,0.99849272,-0.045702763
43001103.715843,0.99852586,-0.045729831
43101107.060437,0.99844807,-0.0459111
43201110.40503,0.99846852,-0.046034794
43301113.749624,0.99846953,-0.046098337
43401117.094217,0.99837881,-0.046147604
43501120.438811,0.99835372,-0.046321802
43601123.783404,0.99842817,-0.046423655
43701127.127998,0.99839944,-0.046442267
43801130.472591,0.9984982,-0.046577308
43901133.817185,0.99848932,-0.046737988
44001137.161778,0.99836582,-0.046821356
44101140.506371,0.99843687,-0.0469248
44201143.850965,0.99842989,-0.047066242
44301147.195558,0.99842846,-0.047083233
44401150.540152,0.99835223,-0.047156274
44501153.884745,0.99831462,-0.04739438
44601157.229339,0.99828607,-0.047459297
44701160.573932,0.99833184,-0.047509886
44801163.918526,0.99835926,-0.04767666
44901167.263119,0.99833435,-0.047790069
45001170.607713,0.9983294,-0.047874119
45101173.952306,0.99840003,-0.047968265
45201177.2969,0.99827367,-0.048080731
45301180.641493,0.99828947,-0.048195925
45401183.986086,0.99824721,-0.048167016
45501187.33068,0.99827987,-0.048402231
45601190.675273,0.99824345,-0.048516922
45701194.019867,0.99828321,-0.048587769
45801197.36446,0.99830431,-0.048719667
45901200.709054,0.99830818,-0.048854243
46001204.053647,0.9981733,-0.048866421
46101207.398241,0.99817586,-0.048907042
46201210.742834,0.99816018,-0.049105093
46301214.087428,0.99817306,-0.049221393
46401217.432021,0.99818659,-0.049325891
46501220.776615,0.99821413,-0.049330633
46601224.121208,0.99817222,-0.049505468
46701227.465802,0.99815696,-0.049689136
46801230.810395,0.99817586,-0.049759421
46901234.154988,0.99817556,-0.049870964
47001237.499582,0.99815553,-0.050012197
47101240.844175,0.99822599,-0.050172951
47201244.188769,0.99812305,-0.050205797
47301247.533362,0.99820173,-0.050322257
47401250.877956,0.99823701,-0.050318785
47501254.222549,0.99813259,-0.050429199
47601257.567143,0.99821979,-0.050620303
47701260.911736,0.9981398,-0.050654966
47801264.25633,0.99808925,-0.050704561
47901267.600923,0.99804693,-0.050946519
48001270.945517,0.99806058,-0.050937396
48101274.29011,0.99811506,-0.051159889
48201277.634704,0.99809259,-0.051242262
48301280.979297,0.99807715,-0.051354531
48401284.32389,0.99807221,-0.051478077
48501287.668484,0.99818224,-0.051571153
48601291.013077,0.99805826,-0.051618047
48701294.357671,0.99800807,-0.051705029
48801297.702264,0.99812871,-0.051877338
48901301.046858,0.99809134,-0.051959582
49001304.391451,0.9980135,-0.052046493
49101307.736045,0.9980126,-0.052182302
49201311.080638,0.99804223,-0.052229896
49301314.425232,0.99801046,-0.052298278
49401317.769825,0.99796861,-0.052518491
49501321.114419,0.99795139,-0.052543148
49601324.459012,0.99802011,-0.052679069
49701327.803605,0.99794823,-0.052843381
49801331.148199,0.9979834,-0.052939974
49901334.492792,0.99798167,-0.053060062
50001337.837386,0.99791098,-0.053017821
50101341.181979,0.99802011,-0.053251676
50201344.526573,0.9980191,-0.053319484
50301347.871166,0.99798638,-0.053457674
50401351.21576,0.99807531,-0.053542223
50501354.560353,0.99797302,-0.05358224
50601357.904947,0.99797428,-0.05377787
50701361.24954,0.99789083,-0.053855307
50801364.594134,0.99787337,-0.054014627
50901367.938727,0.99783891,-0.054039475
51001371.283321,0.99789786,-0.054146945
51101374.627914,0.9979735,-0.054258585
51201377.972507,0.99786884,-0.054394607
51301381.317101,0.99789739,-0.054414287
51401384.661694,0.99786896,-0.054538805
51501388.006288,0.99788284,-0.054710504
51601391.350881,0.99787009,-0.054720934
51701394.695475,0.99781388,-0.05492264
51801398.040068,0.9978103,-0.054983288
51901401.384662,0.99779433,-0.0551093
52001404.729255,0.99771935,-0.055194274
52101408.073849,0.99773949,-0.055303928
52201411.418442,0.99771017,-0.055459723
52301414.763036,0.99773395,-0.055511974
52401418.107629,0.99771816,-0.0556239
52501421.452222,0.9976396,-0.055700175
52601424.796816,0.99766362,-0.05586249
52701428.141409,0.9977442,-0.055942543
52801431.486003,0.99770612,-0.056005273
52901434.830596,0.99781179,-0.056072179
53001438.17519,0.99783838,-0.056110103
53101441.519783,0.99794984,-0.056180902
53201444.864377,0.99779308,-0.056385867
53301448.20897,0.99772692,-0.056376658
53401451.553564,0.99801403,-0.056663662
53501454.898157,0.99789417,-0.05666963
53601458.242751,0.99806541,-0.056744784
53701461.587344,0.99792659,-0.056676921
53801464.931938,0.99797398,-0.05702737
53901468.276531,0.9977172,-0.057076357
54001471.621124,0.99760652,-0.057185028
54101474.965718,0.99768043,-0.057183176
54201478.310311,0.99793631,-0.057294276
54301481.654905,0.99780113,-0.057294782
54401484.999498,0.99783307,-0.057382531
54501488.344092,0.99797875,-0.057441261
54601491.688685,0.99772751,-0.057682503
54701495.033279,0.99780923,-0.057814036
54801498.377872,0.99788684,-0.05797128
54901501.722466,0.99791342,-0.058226902
55001505.067059,0.99800462,-0.05823192
55101508.411653,0.9976933,-0.058281377
55201511.756246,0.99771619,-0.058351401
55301515.100839,0.99765027,-0.058542911
55401518.445433,0.99789733,-0.058629107
55501521.790026,0.99789613,-0.058706358
55601525.13462,0.99774992,-0.058757324
55701528.479213,0.99789357,-0.058877304
55801531.823807,0.99768782,-0.059068337
55901535.1684,0.99770713,-0.059016816
56001538.512994,0.99777716,-0.05933309
56101541.857587,0.99783802,-0.059278242
56201545.202181,0.9976638,-0.05931475
56301548.546774,0.99748343,-0.059464019
56401551.891368,0.99763691,-0.059536871
56501555.235961,0.99762762,-0.059790533
56601558.580555,0.99767822,-0.059801996
56701561.925148,0.99752212,-0.059938002
56801565.269741,0.99770468,-0.05986385
56901568.614335,0.99748564,-0.060114723
57001571.958928,0.9974494,-0.060224634
57101575.303522,0.9976359,-0.060325976
57201578.648115,0.99764436,-0.060581833
57301581.992709,0.99748743,-0.060614839
57401585.337302,0.99746585,-0.060518365
57501588.681896,0.99771959,-0.060835879
57601592.026489,0.9975732,-0.061057605
57701595.371083,0.99759978,-0.061159797
57801598.715676,0.99759579,-0.061161321
57901602.06027,0.99759513,-0.061164211
58001605.404863,0.99752313,-0.061373346
58101608.749457,0.99747396,-0.061384309
58201612.09405,0.99729973,-0.061456095
58301615.438643,0.99744195,-0.061530173
58401618.783237,0.99744868,-0.061755341
58501622.12783,0.99742025,-0.061780185
58601625.472424,0.99761546,-0.061898429
