!CSV A.01.01
!Agilent Technologies,N5227A,US51270345,A.09.80.20
!Agilent N5227A: A.09.80.20
!Date: Monday, November 26, 2018 15:55:57
!Source: Standard

BEGIN CH1_DATA
Freq(Hz),S21(REAL),S21(IMAG)
10000000,6.5023727e-005,-0.00013056201
10100003.344593,-0.00021169084,-6.2719111e-005
10200006.689187,-0.00014665395,0.0001800129
10300010.03378,-0.00010965357,0.0001252651
10400013.378374,-0.00028653478,0.00027166665
10500016.722967,0.00029189937,-6.5728811e-005
10600020.067561,-2.9155104e-005,7.4687116e-005
10700023.412154,-6.917071e-005,0.00011901023
10800026.756748,-1.078194e-005,-0.0002404636
10900030.101341,1.0227122e-005,-0.00025826707
11000033.445935,-9.612611e-005,0.00017364322
11100036.790528,3.9280651e-005,0.00010089945
11200040.135122,-0.00030485992,0.00014063892
11300043.479715,-0.00037868356,2.8841449e-005
11400046.824309,7.1904527e-005,-0.00019774055
11500050.168902,-0.00024679949,-0.00022584187
11600053.513495,-0.00019049377,0.00037507
11700056.858089,0.00031698521,0.0001525369
11800060.202682,6.7246492e-006,6.9670234e-005
11900063.547276,7.229238e-005,0.00032232329
12000066.891869,8.7404092e-005,0.00010002981
12100070.236463,0.00022484815,6.4402921e-005
12200073.581056,0.0002224588,9.4567527e-005
12300076.92565,0.00018921202,-2.661731e-005
12400080.270243,2.569336e-005,-0.00010087647
12500083.614837,-0.00017828515,-0.00014221221
12600086.95943,3.1131783e-006,-0.00020274524
12700090.304024,0.00016625941,0.00020068898
12800093.648617,0.00044255762,-0.00016327875
12900096.99321,-1.5278996e-005,0.00015894469
13000100.337804,4.241788e-005,0.00029831519
13100103.682397,0.00019086547,0.00024445701
13200107.026991,3.2919521e-005,6.4450665e-005
13300110.371584,-9.3573982e-007,-0.00018568037
13400113.716178,4.7708396e-005,0.00012102462
13500117.060771,4.3828069e-005,-0.00014893019
13600120.405365,4.3941352e-005,0.00013156069
13700123.749958,0.00010992715,-9.4695488e-006
13800127.094552,-0.00018661252,2.6156051e-005
13900130.439145,-0.00016341383,-6.6031243e-005
14000133.783739,-0.00014418544,-0.00019087468
14100137.128332,0.0003262152,-9.5119743e-005
14200140.472926,5.7457462e-005,-0.00014251556
14300143.817519,-0.00012294434,5.678337e-005
14400147.162112,6.3341686e-005,2.1424808e-005
14500150.506706,7.0244481e-005,-5.0919549e-005
14600153.851299,5.4876014e-005,2.4406687e-005
14700157.195893,-0.00014418404,2.1751872e-005
14800160.540486,6.1340448e-005,-0.00014703299
14900163.88508,-9.2860399e-005,0.00013396834
15000167.229673,2.0645898e-007,3.4194283e-005
15100170.574267,-1.0638008e-005,0.00017563699
15200173.91886,-0.00010293706,-3.7709655e-005
15300177.263454,1.8967361e-005,-3.4861398e-005
15400180.608047,-8.4478183e-005,-0.0002360715
15500183.952641,0.00021775049,8.7720036e-005
15600187.297234,-9.0204318e-005,0.00014891839
15700190.641827,3.9687397e-006,0.00021329739
15800193.986421,-1.1993532e-005,2.7706779e-005
15900197.331014,0.00014593967,6.5855282e-005
16000200.675608,-1.0994384e-005,-0.00010560731
16100204.020201,-1.876337e-005,4.3679785e-005
16200207.364795,-6.4178137e-005,-3.0037498e-005
16300210.709388,2.4427329e-005,6.4174014e-006
16400214.053982,2.2461367e-005,2.7529984e-007
16500217.398575,-1.7437011e-006,-2.215842e-005
16600220.743169,-0.00010930744,-7.1654104e-006
16700224.087762,0.00018440538,-6.4195374e-005
16800227.432356,8.0386235e-005,4.3664775e-005
16900230.776949,-9.1053822e-005,7.9577749e-006
17000234.121543,-6.9399983e-005,0.00017106639
17100237.466136,-3.3355733e-005,-2.8945809e-005
17200240.810729,-6.312297e-005,-0.00010636817
17300244.155323,-6.9040128e-005,-0.00010569477
17400247.499916,-5.4583932e-005,-0.00010514454
17500250.84451,-9.5523639e-005,6.3698649e-006
17600254.189103,6.6157445e-006,8.7752684e-005
17700257.533697,-6.9924157e-005,-3.1479107e-005
17800260.87829,-5.9338439e-005,1.5530049e-005
17900264.222884,0.00010699531,0.00013020883
18000267.567477,6.9039641e-005,-9.0960435e-005
18100270.912071,-0.00011905675,-9.7578413e-005
18200274.256664,2.7603455e-005,-8.572564e-007
18300277.601258,8.6670807e-005,5.1071216e-005
18400280.945851,-9.177428e-005,0.00010993061
18500284.290444,0.00012259185,6.2033636e-005
18600287.635038,0.00011315791,0.00012188125
18700290.979631,8.1835853e-005,-1.3970043e-005
18800294.324225,-2.0669146e-005,-0.00011350367
18900297.668818,9.4230367e-005,9.9364697e-005
19000301.013412,5.1736228e-005,4.2147196e-005
19100304.358005,1.6401103e-005,-2.4248806e-005
19200307.702599,-8.0578619e-005,0.0002156206
19300311.047192,3.0793282e-005,-3.4405395e-005
19400314.391786,-5.8259277e-005,-7.8482932e-005
19500317.736379,9.7561468e-005,2.3611085e-005
19600321.080973,-4.2115986e-005,0.00013556184
19700324.425566,-2.9194412e-005,-1.1522449e-005
19800327.77016,0.00010683926,-1.2918754e-005
19900331.114753,-5.1248622e-005,1.51869e-005
20000334.459346,-4.8090213e-005,0.00014362733
20100337.80394,-4.0593699e-005,0.00012223836
20200341.148533,-8.7734979e-006,0.00015724036
20300344.493127,0.00011035407,6.4379048e-005
20400347.83772,6.9911293e-005,3.0001991e-005
20500351.182314,2.771358e-005,0.0001527342
20600354.526907,-2.4149469e-005,4.0164348e-005
20700357.871501,-2.7306918e-005,4.9225342e-005
20800361.216094,0.00010426011,7.4314128e-005
20900364.560688,7.2449329e-006,1.1288874e-005
21000367.905281,2.8262528e-005,8.7201777e-005
21100371.249875,-7.6522141e-005,4.7456848e-005
21200374.594468,9.8912358e-005,-2.803459e-005
21300377.939062,-9.2199472e-005,-2.5190378e-005
21400381.283655,-7.2576164e-005,2.824152e-005
21500384.628248,1.447429e-005,5.6123458e-006
21600387.972842,-1.3137028e-005,2.29327e-005
21700391.317435,7.1955808e-005,0.00014066946
21800394.662029,5.2246647e-005,9.7666816e-005
21900398.006622,-9.9827412e-006,-3.4108471e-005
22000401.351216,-0.00016123822,9.4598006e-005
22100404.695809,-4.2093998e-005,0.00010668879
22200408.040403,7.276019e-007,3.324739e-005
22300411.384996,5.5809884e-005,4.3454816e-005
22400414.72959,-3.4094406e-005,-3.1010568e-005
22500418.074183,5.0322666e-005,0.00013479829
22600421.418777,8.0553473e-005,-2.9199198e-005
22700424.76337,-1.5495974e-005,5.1224713e-005
22800428.107963,6.2548424e-005,2.9595245e-005
22900431.452557,0.0001060593,6.1554863e-005
23000434.79715,-8.0323618e-005,5.557972e-005
23100438.141744,2.0450734e-005,3.3051427e-005
23200441.486337,-9.9004865e-006,-6.4046297e-005
23300444.830931,8.1213788e-005,-4.3240179e-005
23400448.175524,-3.5717083e-005,1.1906111e-005
23500451.520118,6.913574e-006,0.00011184547
23600454.864711,6.8044275e-005,6.3596002e-005
23700458.209305,-3.6415182e-005,-3.7956033e-005
23800461.553898,5.4402775e-005,-3.3014432e-005
23900464.898492,-4.4401546e-005,5.7685065e-005
24000468.243085,-3.112281e-005,7.5505857e-005
24100471.587679,-1.2097753e-005,0.00013918846
24200474.932272,-3.4609613e-005,2.9190913e-005
24300478.276865,-2.9706012e-005,1.496095e-005
24400481.621459,-6.0254984e-005,4.9644375e-005
24500484.966052,-7.8418334e-006,-5.363371e-005
24600488.310646,-3.1309224e-005,-2.5258098e-005
24700491.655239,7.3463634e-005,0.0001091278
24800494.999833,-7.0084403e-005,5.3489075e-005
24900498.344426,-2.1236599e-005,6.2938161e-005
25000501.68902,3.3637207e-005,3.5072375e-005
25100505.033613,2.1671156e-005,-2.534208e-005
25200508.378207,3.8791124e-005,7.22478e-005
25300511.7228,8.6788721e-005,0.00011975575
25400515.067394,-4.8447096e-006,-4.4178989e-005
25500518.411987,6.1630731e-006,-1.0175629e-005
25600521.75658,-3.7791386e-005,5.3944797e-005
25700525.101174,-6.2887848e-005,1.3747255e-005
25800528.445767,-1.1500516e-006,6.9602509e-005
25900531.790361,2.6489363e-006,9.4063282e-005
26000535.134954,-2.8961997e-006,-4.8502011e-006
26100538.479548,4.0279443e-005,8.932846e-005
26200541.824141,-4.0374557e-006,2.9950141e-005
26300545.168735,2.0840209e-005,-9.4514553e-006
26400548.513328,8.1344224e-005,1.4511143e-005
26500551.857922,-1.7749138e-005,6.2876738e-005
26600555.202515,2.466853e-005,0.00015619534
26700558.547109,-1.4797482e-005,0.00010364193
26800561.891702,1.2129241e-005,3.6961152e-005
26900565.236296,-5.4276723e-005,0.00011865074
27000568.580889,4.4584849e-006,-9.2309856e-006
27100571.925482,-4.8810758e-005,7.8895537e-005
27200575.270076,3.1111624e-005,0.00015757135
27300578.614669,-5.3550907e-006,5.9222049e-005
27400581.959263,-1.0057594e-006,-2.8504155e-006
27500585.303856,3.90778e-006,9.9340301e-005
27600588.64845,-5.9604994e-005,2.0186208e-005
27700591.993043,-7.8110155e-005,7.9487196e-005
27800595.337637,5.1402225e-005,7.308941e-005
27900598.68223,-1.8918521e-005,8.4441068e-005
28000602.026824,3.1439745e-006,-1.1954915e-005
28100605.371417,-6.8429559e-005,6.2103238e-005
28200608.716011,4.6305908e-005,1.3511633e-005
28300612.060604,-6.1921451e-006,3.7752252e-005
28400615.405197,-0.00011290404,6.9025118e-005
28500618.749791,-4.5761732e-005,4.2085267e-005
28600622.094384,-1.3877554e-005,5.4483186e-005
28700625.438978,1.7238735e-005,4.693718e-006
28800628.783571,-1.8581444e-005,0.00012903608
28900632.128165,-6.4684064e-006,4.2709162e-005
29000635.472758,-5.3454343e-005,6.1098064e-005
29100638.817352,7.4961076e-007,3.4434629e-006
29200642.161945,-4.8521375e-005,9.4378796e-005
29300645.506539,-7.7868965e-005,2.7363105e-005
29400648.851132,1.0239515e-005,4.2077671e-005
29500652.195726,4.0651812e-005,6.1849933e-005
29600655.540319,4.5076151e-005,8.8525019e-005
29700658.884913,-3.9350103e-005,9.8385754e-005
29800662.229506,-3.349028e-005,1.1243883e-005
29900665.574099,2.5396972e-005,3.3452438e-006
30000668.918693,4.5310273e-005,2.6559706e-005
30100672.263286,5.2429092e-005,1.7392102e-005
30200675.60788,-5.7137389e-005,7.4070049e-005
30300678.952473,2.7132488e-005,1.3922264e-005
30400682.297067,-9.7242435e-007,4.5749446e-005
30500685.64166,-6.7266177e-005,2.9300112e-005
30600688.986254,-4.0573304e-005,7.9629703e-005
30700692.330847,6.7318979e-005,1.7507957e-005
30800695.675441,-5.4280699e-005,5.0359697e-005
30900699.020034,-6.8726426e-005,6.4687651e-005
31000702.364628,2.5839592e-005,5.8556016e-005
31100705.709221,-3.7388232e-005,9.3272007e-005
31200709.053815,5.5520726e-005,0.00012781797
31300712.398408,2.6562357e-005,5.7739559e-005
31400715.743001,-3.0259671e-005,5.0962331e-005
31500719.087595,6.2230993e-006,4.3257554e-005
31600722.432188,2.8917104e-005,7.6135264e-005
31700725.776782,-2.2708991e-006,2.3995042e-005
31800729.121375,-3.2643933e-005,9.2773544e-006
31900732.465969,-2.8621045e-005,3.050447e-005
32000735.810562,4.4496946e-006,-1.3958586e-006
32100739.155156,1.5574882e-005,3.0246023e-005
32200742.499749,-5.6413035e-005,6.1325503e-005
32300745.844343,-1.4616629e-005,-2.3039554e-005
32400749.188936,-2.5516925e-005,5.8098401e-005
32500752.53353,-4.6006712e-006,7.9193269e-005
32600755.878123,5.7531663e-005,6.4724984e-005
32700759.222716,8.6400192e-005,8.7062261e-005
32800762.56731,-1.8380396e-007,7.4147763e-005
32900765.911903,1.6318372e-006,6.022651e-005
33000769.256497,1.3868829e-007,4.8316924e-005
33100772.60109,4.4220727e-005,9.3108218e-005
33200775.945684,-4.5006827e-006,6.8575348e-005
33300779.290277,-1.0732456e-005,6.8926965e-005
33400782.634871,4.1594412e-005,9.300471e-005
33500785.979464,-1.815519e-005,0.00010486633
33600789.324058,8.265516e-006,9.2468574e-005
33700792.668651,1.0384655e-005,7.5599171e-005
33800796.013245,-4.3996166e-005,0.00012331731
33900799.357838,-2.0732308e-005,4.884334e-005
34000802.702432,-2.955287e-005,4.1767606e-005
34100806.047025,-1.1436852e-005,5.2842297e-005
34200809.391618,-1.6060532e-005,0.00010363846
34300812.736212,-1.5428965e-005,5.9290953e-005
34400816.080805,5.0930653e-006,5.4470147e-005
34500819.425399,-2.110734e-005,7.2349336e-005
34600822.769992,2.6360571e-005,5.0990056e-005
34700826.114586,2.0601523e-005,6.3310079e-005
34800829.459179,5.8301586e-005,8.612805e-005
34900832.803773,-8.2008104e-005,5.2245701e-005
35000836.148366,1.9428917e-005,5.3301981e-005
35100839.49296,-2.0562833e-005,3.7862483e-005
35200842.837553,1.7991559e-006,0.00010930856
35300846.182147,-4.0193412e-005,7.6156859e-005
35400849.52674,4.9855844e-005,0.0001044337
35500852.871333,-6.4533442e-006,0.00011635818
35600856.215927,2.2207791e-005,0.00010456008
35700859.56052,8.834545e-006,2.3296263e-005
35800862.905114,2.8064893e-005,5.1279425e-005
35900866.249707,3.8144694e-006,3.1972551e-005
36000869.594301,1.3291547e-005,9.3154937e-005
36100872.938894,2.4903355e-005,8.4137071e-005
36200876.283488,2.4128827e-005,8.5522326e-005
36300879.628081,-1.2713952e-005,7.611014e-005
36400882.972675,-1.9032166e-005,4.9974016e-005
36500886.317268,4.9391674e-005,6.9144589e-005
36600889.661862,-2.3696595e-005,0.00011244886
36700893.006455,-4.8464372e-006,4.665431e-005
36800896.351049,2.0884407e-005,2.9149101e-005
36900899.695642,1.2775361e-005,5.9765884e-005
37000903.040235,-3.222849e-005,4.6565656e-005
37100906.384829,1.240245e-006,0.00010733578
37200909.729422,-2.0901758e-005,8.3282954e-005
37300913.074016,4.0977364e-005,9.1567941e-005
37400916.418609,-1.1974662e-005,0.00011413077
37500919.763203,-2.9044963e-005,0.00010565985
37600923.107796,3.7860875e-005,5.352201e-005
37700926.45239,1.1369151e-005,0.00012254021
37800929.796983,1.5665682e-005,7.0733528e-005
37900933.141577,-3.0688712e-005,0.00010224697
38000936.48617,4.053982e-005,7.6947639e-005
38100939.830764,3.0672315e-006,7.5470394e-005
38200943.175357,5.6225334e-005,4.2109212e-005
38300946.51995,-4.2301923e-005,0.00011172375
38400949.864544,-5.9399495e-006,8.1776969e-005
38500953.209137,-1.2008343e-005,7.6004828e-005
38600956.553731,4.8946393e-005,0.00010169554
38700959.898324,-6.0511567e-005,9.1367991e-005
38800963.242918,7.899831e-006,4.8625148e-005
38900966.587511,-4.0597993e-006,8.3744644e-006
39000969.932105,3.5918318e-005,0.00010935741
39100973.276698,-1.2928022e-005,4.8307251e-005
39200976.621292,-1.9140411e-005,0.00011224238
39300979.965885,1.8191829e-005,6.5178188e-005
39400983.310479,1.465586e-005,8.5579712e-005
39500986.655072,1.2329143e-005,6.8049812e-005
39600989.999666,4.000264e-005,0.00010692863
39700993.344259,-6.1869541e-006,6.6043787e-005
39800996.688852,-3.2927139e-006,8.3024926e-005
39901000.033446,-1.5405743e-005,0.00012904628
40001003.378039,3.2166099e-005,0.00012269305
40101006.722633,2.3248538e-005,0.0001063103
40201010.067226,1.7703305e-005,5.278235e-005
40301013.41182,-2.2653974e-005,0.00010081514
40401016.756413,4.2426669e-005,7.0860944e-005
40501020.101007,-2.9163961e-005,9.4149509e-005
40601023.4456,8.632328e-006,0.00011643114
40701026.790194,-4.1459367e-005,5.4103228e-005
40801030.134787,5.0608187e-006,9.2200418e-005
40901033.479381,-7.8535186e-006,0.00010135361
41001036.823974,2.5251717e-005,8.5065461e-005
41101040.168568,-3.2197309e-005,4.7898706e-005
41201043.513161,-1.4639303e-005,6.0251365e-005
41301046.857754,-1.9567795e-005,8.9025343e-005
41401050.202348,1.9782095e-005,8.4229665e-005
41501053.546941,2.2801283e-005,6.4427208e-005
41601056.891535,3.1261941e-005,7.3683863e-005
41701060.236128,2.3864053e-005,0.00011112339
41801063.580722,-8.0789159e-006,7.4840857e-005
41901066.925315,3.5413712e-005,8.0596124e-005
42001070.269909,-2.3119888e-005,7.9363337e-005
42101073.614502,1.2188731e-005,9.9036108e-005
42201076.959096,3.4060242e-005,3.3027289e-005
42301080.303689,1.3356195e-005,6.652774e-005
42401083.648283,1.274768e-005,7.0849812e-005
42501086.992876,3.2939008e-006,9.4342853e-005
42601090.337469,5.5154451e-006,7.2356277e-005
42701093.682063,-8.6877651e-007,8.7184431e-005
42801097.026656,1.6051357e-005,0.00012449693
42901100.37125,-5.7730131e-006,0.00010832811
43001103.715843,7.5261246e-006,7.7440047e-005
43101107.060437,-3.9641032e-005,8.1464284e-005
43201110.40503,-6.4725637e-006,4.6775687e-005
43301113.749624,9.3839543e-007,3.6249934e-005
43401117.094217,3.5872807e-005,8.6197833e-005
43501120.438811,-4.2904726e-006,8.19528e-005
43601123.783404,2.9259889e-005,0.00011206599
43701127.127998,4.8597385e-006,7.6551209e-005
43801130.472591,-3.3370226e-005,7.6495453e-005
43901133.817185,3.5720432e-006,7.8609795e-005
44001137.161778,1.2635734e-005,9.4476512e-005
44101140.506371,2.0692931e-005,8.5731182e-005
44201143.850965,5.2727606e-005,0.00013927078
44301147.195558,1.8646493e-005,0.00011692192
44401150.540152,1.8511788e-005,4.4236833e-005
44501153.884745,-2.6830841e-005,7.9192148e-005
44601157.229339,-4.4676999e-005,7.8228884e-005
44701160.573932,-2.0823975e-006,0.00010991129
44801163.918526,-3.1027048e-005,8.6665175e-005
44901167.263119,2.1823686e-005,0.00016983155
45001170.607713,-1.1127075e-005,8.8017041e-005
45101173.952306,4.2077718e-006,9.729842e-005
45201177.2969,1.056209e-006,4.3810269e-005
45301180.641493,-5.2917994e-006,0.00010267927
45401183.986086,8.5580014e-006,0.00010011462
45501187.33068,4.5915942e-005,9.9141267e-005
45601190.675273,-1.1945473e-005,5.7907517e-005
45701194.019867,-2.2044349e-005,0.00013257346
45801197.36446,7.9844978e-007,0.00010722932
45901200.709054,-1.2798253e-006,7.326917e-005
46001204.053647,-1.5692793e-005,0.00011985871
46101207.398241,1.7048207e-005,8.2241699e-005
46201210.742834,2.3005461e-005,8.2684739e-005
46301214.087428,-6.9005318e-006,7.947105e-005
46401217.432021,1.9249101e-005,0.00011641717
46501220.776615,5.3909494e-005,0.00010591582
46601224.121208,3.9222323e-005,9.1993585e-005
46701227.465802,-5.3417625e-006,9.5166215e-005
46801230.810395,-4.298664e-006,0.00010302201
46901234.154988,3.7116191e-005,0.00012775195
47001237.499582,-1.4600493e-005,0.00012476042
47101240.844175,2.0841399e-005,8.1239647e-005
47201244.188769,-1.0826101e-005,9.066661e-005
47301247.533362,8.014792e-006,0.00010996148
47401250.877956,1.7377528e-005,8.7918634e-005
47501254.222549,-1.8133502e-005,0.00011010449
47601257.567143,-4.2858655e-006,8.4851519e-005
47701260.911736,1.1965185e-006,0.00012753843
47801264.25633,1.9463385e-005,9.4717732e-005
47901267.600923,-2.7250221e-006,8.7268352e-005
48001270.945517,-3.2113909e-005,0.00010746445
48101274.29011,-2.6811029e-005,0.0001064024
48201277.634704,7.5154721e-006,9.8175427e-005
48301280.979297,-2.7238507e-006,0.00010539489
48401284.32389,-7.6244788e-007,8.6294705e-005
48501287.668484,6.1929836e-007,0.00011271203
48601291.013077,-2.2378856e-005,0.00011696206
48701294.357671,-1.0030377e-005,0.00010676025
48801297.702264,2.2874348e-005,0.00012472793
48901301.046858,-1.7460648e-005,9.2094015e-005
49001304.391451,1.6434173e-005,8.3012463e-005
49101307.736045,4.7124977e-006,0.00010987768
49201311.080638,2.3023644e-005,0.00012412849
49301314.425232,-4.0352579e-006,8.9384273e-005
49401317.769825,3.4548611e-005,7.9107725e-005
49501321.114419,5.715719e-006,7.479122e-005
49601324.459012,8.261617e-006,6.940795e-005
49701327.803605,-8.1671087e-006,0.0001217548
49801331.148199,2.2459158e-006,5.7021109e-005
49901334.492792,-1.0882295e-006,8.8547924e-005
50001337.837386,-4.6228866e-005,0.00012233664
50101341.181979,2.0233165e-005,8.3661202e-005
50201344.526573,-2.2420414e-005,7.9332087e-005
50301347.871166,-8.1689068e-006,0.00011227227
50401351.21576,5.3930154e-007,0.0001212972
50501354.560353,2.9865512e-006,0.00011599771
50601357.904947,1.7024839e-005,6.7910332e-005
50701361.24954,1.0685718e-005,0.00012054847
50801364.594134,-4.8918473e-006,0.00010961106
50901367.938727,1.955235e-005,0.00012772619
51001371.283321,2.5127401e-005,0.00012010898
51101374.627914,4.0350951e-005,0.00010658794
51201377.972507,4.5335873e-005,8.6627806e-005
51301381.317101,1.4642577e-005,0.00011404481
51401384.661694,-3.2394317e-005,9.1670772e-005
51501388.006288,-4.3040652e-007,0.00011609915
51601391.350881,-3.8644926e-006,8.9329282e-005
51701394.695475,2.0148223e-005,6.0619048e-005
51801398.040068,-2.4110655e-005,7.0329159e-005
51901401.384662,2.1866319e-005,0.00011085884
52001404.729255,1.7726194e-005,0.000130833
52101408.073849,4.9470043e-005,9.9159573e-005
