!CSV A.01.01
!Agilent Technologies,N5227A,US51270345,A.09.80.20
!Agilent N5227A: A.09.80.20
!Date: Monday, November 26, 2018 15:57:12
!Source: Standard

BEGIN CH1_DATA
Freq(Hz),S22(REAL),S22(IMAG)
10000000,0.83314502,-0.38582009
10100003.344593,0.83185297,-0.38830629
10200006.689187,0.83091629,-0.39004335
10300010.03378,0.82936919,-0.39311907
10400013.378374,0.82826853,-0.39498273
10500016.722967,0.82726604,-0.39684549
10600020.067561,0.82608902,-0.39931291
10700023.412154,0.8247841,-0.40099606
10800026.756748,0.82416499,-0.40254453
10900030.101341,0.82265317,-0.40510049
11000033.445935,0.8217361,-0.40705299
11100036.790528,0.82040924,-0.40919444
11200040.135122,0.81988192,-0.41123426
11300043.479715,0.81847388,-0.41321656
11400046.824309,0.81725627,-0.41558096
11500050.168902,0.8162812,-0.41757169
11600053.513495,0.81471264,-0.41898793
11700056.858089,0.81390893,-0.42168415
11800060.202682,0.81281888,-0.42358986
11900063.547276,0.81159645,-0.42573202
12000066.891869,0.81029218,-0.42751727
12100070.236463,0.80899709,-0.42954588
12200073.581056,0.80829823,-0.43153739
12300076.92565,0.80714029,-0.4334181
12400080.270243,0.80600584,-0.43522617
12500083.614837,0.8050974,-0.43725398
12600086.95943,0.80392593,-0.4390848
12700090.304024,0.80235797,-0.44105461
12800093.648617,0.80154669,-0.44356123
12900096.99321,0.80007452,-0.44537649
13000100.337804,0.79868633,-0.44743618
13100103.682397,0.79758084,-0.44935003
13200107.026991,0.79618347,-0.45132187
13300110.371584,0.79513156,-0.45321321
13400113.716178,0.7940219,-0.4551585
13500117.060771,0.79283625,-0.45750469
13600120.405365,0.79156965,-0.45935234
13700123.749958,0.79059899,-0.461032
13800127.094552,0.78916919,-0.46310392
13900130.439145,0.7877993,-0.46499506
14000133.783739,0.78629106,-0.46707204
14100137.128332,0.78508371,-0.46919119
14200140.472926,0.78369355,-0.47106844
14300143.817519,0.78248388,-0.47314486
14400147.162112,0.7810362,-0.47524828
14500150.506706,0.77989161,-0.47692081
14600153.851299,0.77814674,-0.4790872
14700157.195893,0.77720368,-0.48111331
14800160.540486,0.77560675,-0.48297805
14900163.88508,0.77459556,-0.48474488
15000167.229673,0.77309138,-0.48645997
15100170.574267,0.77143484,-0.48839691
15200173.91886,0.76978028,-0.49093321
15300177.263454,0.76844913,-0.49272206
15400180.608047,0.76704049,-0.49463409
15500183.952641,0.76519001,-0.49651197
15600187.297234,0.76370513,-0.49862593
15700190.641827,0.7623511,-0.50053924
15800193.986421,0.76049495,-0.50262421
15900197.331014,0.75923878,-0.50479198
16000200.675608,0.75728178,-0.5067752
16100204.020201,0.75582039,-0.50865561
16200207.364795,0.7543568,-0.51053828
16300210.709388,0.75263608,-0.51252466
16400214.053982,0.7514109,-0.51459694
16500217.398575,0.7494902,-0.51668233
16600220.743169,0.74829555,-0.51844865
16700224.087762,0.74644941,-0.52031851
16800227.432356,0.74493009,-0.5224489
16900230.776949,0.74329448,-0.52422571
17000234.121543,0.74192959,-0.52623934
17100237.466136,0.74033654,-0.52797914
17200240.810729,0.73868436,-0.52985537
17300244.155323,0.7369886,-0.53193641
17400247.499916,0.73559803,-0.53382492
17500250.84451,0.73414159,-0.53580463
17600254.189103,0.732696,-0.53748602
17700257.533697,0.73076838,-0.53946811
17800260.87829,0.7291798,-0.5412181
17900264.222884,0.72775459,-0.543136
18000267.567477,0.72620177,-0.54530406
18100270.912071,0.72457147,-0.54682964
18200274.256664,0.72289491,-0.54865998
18300277.601258,0.72143692,-0.55055922
18400280.945851,0.7199145,-0.55235678
18500284.290444,0.71834117,-0.55415928
18600287.635038,0.71655464,-0.55591476
18700290.979631,0.71512276,-0.55769908
18800294.324225,0.71340573,-0.55962491
18900297.668818,0.71181327,-0.561454
19000301.013412,0.70987082,-0.56343156
19100304.358005,0.70829332,-0.56507754
19200307.702599,0.70661008,-0.56705731
19300311.047192,0.70491827,-0.56893772
19400314.391786,0.70328474,-0.57094461
19500317.736379,0.70144016,-0.57278103
19600321.080973,0.69989598,-0.57449412
19700324.425566,0.69816703,-0.5762738
19800327.77016,0.69624394,-0.57823241
19900331.114753,0.69461614,-0.58007085
20000334.459346,0.6927734,-0.5816232
20100337.80394,0.69123226,-0.58335996
20200341.148533,0.68943268,-0.5854702
20300344.493127,0.68765962,-0.58720481
20400347.83772,0.68585014,-0.58916205
20500351.182314,0.68418908,-0.59077603
20600354.526907,0.682356,-0.5923785
20700357.871501,0.68073553,-0.59428501
20800361.216094,0.67898375,-0.5959571
20900364.560688,0.67718482,-0.59791285
21000367.905281,0.6754216,-0.59967339
21100371.249875,0.67374951,-0.6012876
21200374.594468,0.67204571,-0.60317487
21300377.939062,0.6702798,-0.60460705
21400381.283655,0.66837209,-0.60629898
21500384.628248,0.66671151,-0.60808408
21600387.972842,0.66496313,-0.60992217
21700391.317435,0.66319007,-0.61154312
21800394.662029,0.66138297,-0.61305636
21900398.006622,0.65967476,-0.61497772
22000401.351216,0.65798479,-0.61662024
22100404.695809,0.65624547,-0.61835164
22200408.040403,0.6543169,-0.61994082
22300411.384996,0.65266204,-0.62165999
22400414.72959,0.65091056,-0.62332135
22500418.074183,0.64912027,-0.62493825
22600421.418777,0.64721233,-0.62683672
22700424.76337,0.64515162,-0.62857634
22800428.107963,0.64334214,-0.63006985
22900431.452557,0.64137131,-0.63193852
23000434.79715,0.63953096,-0.63371766
23100438.141744,0.63773245,-0.6355074
23200441.486337,0.63574803,-0.63726503
23300444.830931,0.63379115,-0.63905299
23400448.175524,0.63165444,-0.64060891
23500451.520118,0.62985039,-0.6424762
23600454.864711,0.62785316,-0.64394462
23700458.209305,0.62586039,-0.6457901
23800461.553898,0.62380648,-0.64736617
23900464.898492,0.62203991,-0.64904094
24000468.243085,0.61976987,-0.65081322
24100471.587679,0.61789483,-0.65255976
24200474.932272,0.61607075,-0.65411681
24300478.276865,0.61396295,-0.65594023
24400481.621459,0.61209399,-0.65755415
24500484.966052,0.61013567,-0.65904886
24600488.310646,0.60815978,-0.66083902
24700491.655239,0.60616869,-0.66227365
24800494.999833,0.60403109,-0.66400546
24900498.344426,0.60213888,-0.66562557
25000501.68902,0.60005617,-0.66737854
25100505.033613,0.59816456,-0.66887373
25200508.378207,0.59607041,-0.67043674
25300511.7228,0.59427142,-0.67196769
25400515.067394,0.59205621,-0.67380697
25500518.411987,0.59012824,-0.67522442
25600521.75658,0.58803183,-0.6768176
25700525.101174,0.58612013,-0.67846245
25800528.445767,0.58416837,-0.6800366
25900531.790361,0.58201259,-0.68153071
26000535.134954,0.58000302,-0.68307459
26100538.479548,0.57797837,-0.68464541
26200541.824141,0.57592541,-0.68615818
26300545.168735,0.57378107,-0.68773699
26400548.513328,0.5716359,-0.68944722
26500551.857922,0.5696255,-0.69096684
26600555.202515,0.56746989,-0.69267273
26700558.547109,0.56540835,-0.69428921
26800561.891702,0.56326872,-0.69580376
26900565.236296,0.56112111,-0.69749951
27000568.580889,0.55899709,-0.699112
27100571.925482,0.55685681,-0.70066941
27200575.270076,0.55462831,-0.70233375
27300578.614669,0.55254996,-0.70383722
27400581.959263,0.55041379,-0.70537192
27500585.303856,0.54825515,-0.70684111
27600588.64845,0.54619306,-0.70843577
27700591.993043,0.54401749,-0.70998746
27800595.337637,0.54186344,-0.71146578
27900598.68223,0.53976011,-0.71318918
28000602.026824,0.53764987,-0.71468115
28100605.371417,0.53543055,-0.71618032
28200608.716011,0.53325903,-0.7178086
28300612.060604,0.53107899,-0.71922368
28400615.405197,0.52880383,-0.72068882
28500618.749791,0.52678114,-0.72230798
28600622.094384,0.5245111,-0.72373974
28700625.438978,0.52226192,-0.7252242
28800628.783571,0.5201053,-0.72663349
28900632.128165,0.51793671,-0.72802925
29000635.472758,0.51570052,-0.72962636
29100638.817352,0.51344025,-0.73105824
29200642.161945,0.51120788,-0.73249453
29300645.506539,0.50902838,-0.73395145
29400648.851132,0.50685781,-0.73535174
29500652.195726,0.50456959,-0.73673594
29600655.540319,0.50229448,-0.73815066
29700658.884913,0.50008065,-0.73965406
29800662.229506,0.49792126,-0.74112457
29900665.574099,0.49562752,-0.7423287
30000668.918693,0.49318707,-0.74389547
30100672.263286,0.490888,-0.74541861
30200675.60788,0.48854652,-0.74691993
30300678.952473,0.48628217,-0.74826819
30400682.297067,0.484016,-0.74980098
30500685.64166,0.481731,-0.75132477
30600688.986254,0.47931978,-0.75266463
30700692.330847,0.47694147,-0.75416863
30800695.675441,0.47473907,-0.75554127
30900699.020034,0.4724389,-0.75707036
31000702.364628,0.47006816,-0.75842351
31100705.709221,0.46770975,-0.75994307
31200709.053815,0.46539509,-0.76135671
31300712.398408,0.46304283,-0.76270503
31400715.743001,0.4607366,-0.76408947
31500719.087595,0.45840842,-0.76552373
31600722.432188,0.45603529,-0.76698405
31700725.776782,0.453684,-0.76835877
31800729.121375,0.45127958,-0.76975209
31900732.465969,0.44900206,-0.77108586
32000735.810562,0.44652641,-0.7724117
32100739.155156,0.44408405,-0.77387112
32200742.499749,0.44183928,-0.77518034
32300745.844343,0.43942052,-0.77648419
32400749.188936,0.43704319,-0.77786446
32500752.53353,0.43468758,-0.77922481
32600755.878123,0.43222615,-0.78053087
32700759.222716,0.42991325,-0.78182131
32800762.56731,0.42753133,-0.78314847
32900765.911903,0.42503732,-0.78445262
33000769.256497,0.42263028,-0.78577673
33100772.60109,0.4203468,-0.78709775
33200775.945684,0.41789535,-0.78834838
33300779.290277,0.41536549,-0.78956723
33400782.634871,0.41293955,-0.79090804
33500785.979464,0.41055408,-0.79220867
33600789.324058,0.40804926,-0.79341936
33700792.668651,0.40557426,-0.79467893
33800796.013245,0.40323487,-0.7959317
33900799.357838,0.40080506,-0.79719406
34000802.702432,0.39836845,-0.79836869
34100806.047025,0.39583132,-0.79965436
34200809.391618,0.3934111,-0.80091107
34300812.736212,0.39100266,-0.80210578
34400816.080805,0.38846135,-0.8032546
34500819.425399,0.38604793,-0.80446154
34600822.769992,0.38357708,-0.80574679
34700826.114586,0.38102129,-0.80687201
34800829.459179,0.3785747,-0.80805326
34900832.803773,0.37607563,-0.80928844
35000836.148366,0.37363815,-0.81040287
35100839.49296,0.37113661,-0.81151778
35200842.837553,0.36861962,-0.81269258
35300846.182147,0.36618897,-0.81382579
35400849.52674,0.3636575,-0.81494987
35500852.871333,0.36118099,-0.81600225
35600856.215927,0.35875073,-0.8171618
35700859.56052,0.3561551,-0.81832373
35800862.905114,0.35372764,-0.81949198
35900866.249707,0.35117927,-0.82053155
36000869.594301,0.34866589,-0.82164884
36100872.938894,0.34607169,-0.82274222
36200876.283488,0.34360173,-0.82382983
36300879.628081,0.34103605,-0.82488966
36400882.972675,0.33851695,-0.82601428
36500886.317268,0.3359679,-0.82705247
36600889.661862,0.33345518,-0.8280763
36700893.006455,0.3309153,-0.82909375
36800896.351049,0.3283886,-0.83008194
36900899.695642,0.32584304,-0.8312251
37000903.040235,0.3233057,-0.83221704
37100906.384829,0.32070902,-0.83328944
37200909.729422,0.31812698,-0.8342495
37300913.074016,0.31561065,-0.83523899
37400916.418609,0.31308571,-0.83630168
37500919.763203,0.31046239,-0.83726162
37600923.107796,0.30791798,-0.83822978
37700926.45239,0.30536717,-0.83923495
37800929.796983,0.302773,-0.84018171
37900933.141577,0.30009311,-0.8409878
38000936.48617,0.29756212,-0.84196687
38100939.830764,0.29496616,-0.84293181
38200943.175357,0.29241359,-0.84384471
38300946.51995,0.28983048,-0.84474838
38400949.864544,0.28719795,-0.84565908
38500953.209137,0.28460243,-0.84661072
38600956.553731,0.28207797,-0.84746039
38700959.898324,0.27951726,-0.84840047
38800963.242918,0.27685896,-0.84929335
38900966.587511,0.27428836,-0.85014278
39000969.932105,0.27168685,-0.85098171
39100973.276698,0.2690405,-0.85189927
39200976.621292,0.26638252,-0.8527413
39300979.965885,0.26381242,-0.85359812
39400983.310479,0.26129392,-0.85442328
39500986.655072,0.25861698,-0.8552385
39600989.999666,0.25591847,-0.85603881
39700993.344259,0.25334522,-0.85689765
39800996.688852,0.25073668,-0.85771626
39901000.033446,0.24810581,-0.85849476
40001003.378039,0.245455,-0.85928899
40101006.722633,0.24279128,-0.860084
40201010.067226,0.24024956,-0.86087132
40301013.41182,0.23753308,-0.86161613
40401016.756413,0.23496832,-0.8623969
40501020.101007,0.23228456,-0.86306876
40601023.4456,0.22971202,-0.86383647
40701026.790194,0.22699723,-0.86458707
40801030.134787,0.22438277,-0.86537886
40901033.479381,0.2217382,-0.86602998
41001036.823974,0.21908621,-0.86673141
41101040.168568,0.21642986,-0.86745763
41201043.513161,0.21379106,-0.86813641
41301046.857754,0.21108675,-0.86881274
41401050.202348,0.20851564,-0.86950219
41501053.546941,0.20579734,-0.87013352
41601056.891535,0.20315489,-0.87114918
41701060.236128,0.20045666,-0.8720628
41801063.580722,0.19769914,-0.87295151
41901066.925315,0.19501926,-0.8737675
42001070.269909,0.19226238,-0.87474048
42101073.614502,0.18962137,-0.87561798
42201076.959096,0.18687616,-0.87649262
42301080.303689,0.18416938,-0.87743145
42401083.648283,0.18140091,-0.87824285
42501086.992876,0.17870341,-0.87914097
42601090.337469,0.17596132,-0.88006151
42701093.682063,0.1732648,-0.88089579
42801097.026656,0.17053209,-0.88172853
42901100.37125,0.1677992,-0.88260138
43001103.715843,0.16500431,-0.8834011
43101107.060437,0.16226359,-0.88423735
43201110.40503,0.1595214,-0.88511431
43301113.749624,0.15674946,-0.8859064
43401117.094217,0.15404469,-0.88663352
43501120.438811,0.151241,-0.88754141
43601123.783404,0.14844897,-0.88828248
43701127.127998,0.14569888,-0.88906777
43801130.472591,0.14288756,-0.88981545
43901133.817185,0.14013383,-0.89057755
44001137.161778,0.13733093,-0.89130569
44101140.506371,0.13460964,-0.89208311
44201143.850965,0.13179485,-0.89289886
44301147.195558,0.12899037,-0.89368695
44401150.540152,0.1261843,-0.89434302
44501153.884745,0.12338407,-0.89510781
44601157.229339,0.1206119,-0.89579266
44701160.573932,0.11773864,-0.89649677
44801163.918526,0.11494632,-0.89727592
44901167.263119,0.1122265,-0.89795399
45001170.607713,0.10936169,-0.89867508
45101173.952306,0.10646769,-0.89931577
45201177.2969,0.10369065,-0.89996105
45301180.641493,0.10087473,-0.90069151
45401183.986086,0.098037802,-0.90130442
45501187.33068,0.095174447,-0.90207118
45601190.675273,0.09236329,-0.9027313
45701194.019867,0.089452028,-0.90330714
45801197.36446,0.086666554,-0.90391988
45901200.709054,0.083798461,-0.90457219
46001204.053647,0.080916055,-0.90514493
46101207.398241,0.078043826,-0.90575498
46201210.742834,0.075250395,-0.90640706
46301214.087428,0.072359383,-0.90704566
46401217.432021,0.069464162,-0.90761364
46501220.776615,0.066650167,-0.90819532
46601224.121208,0.063726448,-0.90874887
46701227.465802,0.06080899,-0.90928364
46801230.810395,0.05791346,-0.90983909
46901234.154988,0.055027273,-0.91051972
47001237.499582,0.052110918,-0.91100788
47101240.844175,0.049273882,-0.91156542
47201244.188769,0.04632761,-0.91205919
47301247.533362,0.043389536,-0.9125964
47401250.877956,0.04054489,-0.9131093
47501254.222549,0.037682962,-0.91369635
47601257.567143,0.034724742,-0.91419554
47701260.911736,0.031829953,-0.91477156
47801264.25633,0.028868625,-0.91521448
47901267.600923,0.025966549,-0.91566485
48001270.945517,0.023004809,-0.91612625
48101274.29011,0.020095725,-0.91656303
48201277.634704,0.017151536,-0.91701198
48301280.979297,0.014227901,-0.9175415
48401284.32389,0.011193877,-0.91796947
48501287.668484,0.0083578015,-0.91841495
48601291.013077,0.0053319451,-0.91880286
48701294.357671,0.0023874992,-0.9192813
48801297.702264,-0.00055007415,-0.91970736
48901301.046858,-0.0036102303,-0.9200927
49001304.391451,-0.0065418277,-0.92049015
49101307.736045,-0.0094648432,-0.9208855
49201311.080638,-0.012449314,-0.9212876
49301314.425232,-0.015395977,-0.9216007
49401317.769825,-0.018405925,-0.92196858
49501321.114419,-0.021346007,-0.92238432
49601324.459012,-0.024320273,-0.92272532
49701327.803605,-0.027316092,-0.92299968
49801331.148199,-0.03032336,-0.92332751
49901334.492792,-0.033404425,-0.92364269
50001337.837386,-0.036369722,-0.92399013
50101341.181979,-0.039354224,-0.92434889
50201344.526573,-0.042365585,-0.92462856
50301347.871166,-0.045358945,-0.92497069
50401351.21576,-0.04840618,-0.92528111
50501354.560353,-0.051423334,-0.92556167
50601357.904947,-0.054411035,-0.92578387
50701361.24954,-0.057439372,-0.92604399
50801364.594134,-0.060475901,-0.92633498
50901367.938727,-0.063495331,-0.926557
51001371.283321,-0.066476904,-0.92675686
51101374.627914,-0.069498047,-0.92706889
51201377.972507,-0.072531864,-0.92721713
51301381.317101,-0.075604096,-0.92743784
51401384.661694,-0.078619853,-0.92769992
51501388.006288,-0.081664033,-0.92792058
51601391.350881,-0.084726349,-0.92811418
51701394.695475,-0.08778958,-0.92826301
51801398.040068,-0.090824351,-0.9285059
51901401.384662,-0.093891121,-0.92861861
52001404.729255,-0.096941553,-0.92878056
52101408.073849,-0.099975966,-0.92897993
52201411.418442,-0.10302957,-0.92910147
52301414.763036,-0.10609402,-0.92926276
52401418.107629,-0.10915446,-0.92940909
52501421.452222,-0.11223007,-0.929564
52601424.796816,-0.11523643,-0.92962575
52701428.141409,-0.11841779,-0.92978197
52801431.486003,-0.12143534,-0.92985326
52901434.830596,-0.12451966,-0.9299162
53001438.17519,-0.10647035,-0.90791166
53101441.519783,-0.10947273,-0.90760928
53201444.864377,-0.11248371,-0.90740603
53301448.20897,-0.1152949,-0.9071312
53401451.553564,-0.11826739,-0.9068501
53501454.898157,-0.12117536,-0.90662229
53601458.242751,-0.12414096,-0.90621167
53701461.587344,-0.12710519,-0.90601826
53801464.931938,-0.12995467,-0.90571034
53901468.276531,-0.13295223,-0.90531564
54001471.621124,-0.13574146,-0.90510267
54101474.965718,-0.13879843,-0.90476614
54201478.310311,-0.14167507,-0.90431052
54301481.654905,-0.14463709,-0.90382403
54401484.999498,-0.14755177,-0.90355486
54501488.344092,-0.15064576,-0.9032321
54601491.688685,-0.15342949,-0.90278208
54701495.033279,-0.15633625,-0.90244722
54801498.377872,-0.15936479,-0.90207654
54901501.722466,-0.16213806,-0.90149242
55001505.067059,-0.16513009,-0.90107238
55101508.411653,-0.16801807,-0.90081894
55201511.756246,-0.17094088,-0.9001714
55301515.100839,-0.17390145,-0.89983261
55401518.445433,-0.17680937,-0.89931488
55501521.790026,-0.1796374,-0.89873618
55601525.13462,-0.18257308,-0.89842296
55701528.479213,-0.18549152,-0.8978194
55801531.823807,-0.18838185,-0.89725393
55901535.1684,-0.19122995,-0.89683998
56001538.512994,-0.19421586,-0.89640945
56101541.857587,-0.1970287,-0.89580643
56201545.202181,-0.20003726,-0.89533341
56301548.546774,-0.20288314,-0.89464235
56401551.891368,-0.2058749,-0.89417869
56501555.235961,-0.20863435,-0.89353168
56601558.580555,-0.21154924,-0.89299738
56701561.925148,-0.21454385,-0.89236277
56801565.269741,-0.21741205,-0.89186436
56901568.614335,-0.22020864,-0.89122802
57001571.958928,-0.22310781,-0.89051306
57101575.303522,-0.22601479,-0.88984925
57201578.648115,-0.22883663,-0.88930732
57301581.992709,-0.23168124,-0.88866037
57401585.337302,-0.2346282,-0.88782471
57501588.681896,-0.23755372,-0.88717204
57601592.026489,-0.24041854,-0.88658375
57701595.371083,-0.24332237,-0.88589716
57801598.715676,-0.2460444,-0.88536114
57901602.06027,-0.24904181,-0.88466996
58001605.404863,-0.25186118,-0.88389045
58101608.749457,-0.25464216,-0.88303733
58201612.09405,-0.2575953,-0.88237542
58301615.438643,-0.26045543,-0.88165432
58401618.783237,-0.2632111,-0.88092875
58501622.12783,-0.26621416,-0.88012916
58601625.472424,-0.26897573,-0.87944192
58701628.817017,-0.27178362,-0.87849683
58801632.161611,-0.27463579,-0.87784946
58901635.506204,-0.27749965,-0.87698841
59001638.850798,-0.28036174,-0.87624764
59101642.195391,-0.28310323,-0.87541854
59201645.539985,-0.28603178,-0.87462276
59301648.884578,-0.28885362,-0.87386316
59401652.229172,-0.29171789,-0.87305373
