!CSV A.01.01
!Agilent Technologies,N5227A,US51270345,A.09.80.20
!Agilent N5227A: A.09.80.20
!Date: Monday, November 26, 2018 15:56:19
!Source: Standard

BEGIN CH1_DATA
Freq(Hz),S22(REAL),S22(IMAG)
10000000,1.0002437,-0.009536583
10100003.344593,0.99975884,-0.010960223
10200006.689187,0.99965,-0.010411592
10300010.03378,0.99960071,-0.010512538
10400013.378374,1.0003992,-0.010369045
10500016.722967,0.99975115,-0.011062299
10600020.067561,1.0001366,-0.010834244
10700023.412154,0.9997561,-0.011439467
10800026.756748,1.0006374,-0.011231421
10900030.101341,0.99974507,-0.011659858
11000033.445935,0.99970162,-0.011405341
11100036.790528,1.0001528,-0.011609809
11200040.135122,0.99974418,-0.011856407
11300043.479715,0.99984407,-0.012001686
11400046.824309,0.99981368,-0.011495431
11500050.168902,0.99975586,-0.012585016
11600053.513495,0.99944651,-0.011899069
11700056.858089,0.99970394,-0.011842254
11800060.202682,1.0000094,-0.011961258
11900063.547276,0.99975193,-0.012596864
12000066.891869,0.99978834,-0.012032214
12100070.236463,0.99969411,-0.012405611
12200073.581056,0.99972963,-0.012440646
12300076.92565,1.0000633,-0.01259969
12400080.270243,0.99970198,-0.01297871
12500083.614837,1.0000993,-0.012905014
12600086.95943,0.99974805,-0.013165778
12700090.304024,1.0000979,-0.013103624
12800093.648617,0.99984652,-0.013195945
12900096.99321,0.99978727,-0.013073005
13000100.337804,1.0000173,-0.013353301
13100103.682397,0.99986494,-0.013421225
13200107.026991,0.99963701,-0.013625341
13300110.371584,0.99988973,-0.013693904
13400113.716178,0.99968892,-0.013657606
13500117.060771,1.0003505,-0.013582382
13600120.405365,1.0000952,-0.013896349
13700123.749958,0.99978906,-0.014092952
13800127.094552,0.99962747,-0.014542134
13900130.439145,1.0004727,-0.014349512
14000133.783739,0.99974573,-0.014539431
14100137.128332,0.99990851,-0.014569452
14200140.472926,0.99993718,-0.014619364
14300143.817519,0.9998045,-0.014881185
14400147.162112,1.0001191,-0.015061256
14500150.506706,0.99967128,-0.014885426
14600153.851299,0.99976832,-0.015099466
14700157.195893,0.9999218,-0.015401625
14800160.540486,1.0000757,-0.014751487
14900163.88508,1.0000618,-0.015619338
15000167.229673,0.99971735,-0.015474026
15100170.574267,0.99994797,-0.015522717
15200173.91886,0.9999969,-0.015729979
15300177.263454,0.99969798,-0.015992953
15400180.608047,0.99987602,-0.016103372
15500183.952641,1.0000162,-0.016222373
15600187.297234,0.99990427,-0.016076483
15700190.641827,1.0000113,-0.016189169
15800193.986421,0.99990845,-0.016463978
15900197.331014,0.99983197,-0.016653759
16000200.675608,0.99985242,-0.016558181
16100204.020201,1.0000424,-0.016626621
16200207.364795,1.0003136,-0.016535036
16300210.709388,0.99989688,-0.016854674
16400214.053982,0.99983239,-0.016979663
16500217.398575,0.99966991,-0.016940242
16600220.743169,0.99999219,-0.017271467
16700224.087762,0.99976134,-0.017423561
16800227.432356,0.99973333,-0.017283889
16900230.776949,0.99990427,-0.017280959
17000234.121543,1.0000743,-0.017493658
17100237.466136,0.99987233,-0.017490413
17200240.810729,0.99984205,-0.017699374
17300244.155323,0.99990088,-0.017718168
17400247.499916,1.0001485,-0.018079553
17500250.84451,0.99971324,-0.018155444
17600254.189103,0.99982804,-0.018092694
17700257.533697,0.99947077,-0.01826109
17800260.87829,0.99993455,-0.018506559
17900264.222884,0.99955022,-0.018337166
18000267.567477,1.0000032,-0.018373655
18100270.912071,0.99983078,-0.018678933
18200274.256664,0.99982989,-0.01873105
18300277.601258,0.99994373,-0.019066578
18400280.945851,0.99987376,-0.018891154
18500284.290444,1.0000478,-0.018836347
18600287.635038,0.99984634,-0.019337004
18700290.979631,0.99974841,-0.019474229
18800294.324225,0.99994707,-0.019386249
18900297.668818,0.99947655,-0.019517824
19000301.013412,0.99956936,-0.019882157
19100304.358005,0.99969536,-0.019911282
19200307.702599,0.99967021,-0.019765887
19300311.047192,0.99966151,-0.01979552
19400314.391786,0.99988443,-0.019884052
19500317.736379,0.9998982,-0.020173119
19600321.080973,0.99993658,-0.020089814
19700324.425566,0.99965179,-0.020219171
19800327.77016,0.99992007,-0.020254696
19900331.114753,0.99967593,-0.020681217
20000334.459346,0.99969232,-0.020665703
20100337.80394,0.99987072,-0.020769954
20200341.148533,0.99985301,-0.020857127
20300344.493127,0.99991989,-0.020813495
20400347.83772,0.99956477,-0.021155352
20500351.182314,0.99976611,-0.021030946
20600354.526907,0.99975759,-0.021273134
20700357.871501,0.99963892,-0.021505438
20800361.216094,0.99987006,-0.021303205
20900364.560688,0.99973702,-0.021551372
21000367.905281,0.99973649,-0.021595029
21100371.249875,0.99951386,-0.021749815
21200374.594468,0.99995953,-0.021758888
21300377.939062,0.99982077,-0.022145182
21400381.283655,0.99981028,-0.021912377
21500384.628248,0.99991548,-0.02240311
21600387.972842,0.9996376,-0.022198888
21700391.317435,0.99975866,-0.02232575
21800394.662029,0.9999963,-0.022638397
21900398.006622,0.99984628,-0.022815829
22000401.351216,0.99975598,-0.022714285
22100404.695809,0.99977607,-0.022986036
22200408.040403,0.9997502,-0.023155991
22300411.384996,0.99970907,-0.023096152
22400414.72959,0.99959207,-0.023255346
22500418.074183,0.99960387,-0.023260806
22600421.418777,0.99988049,-0.023408413
22700424.76337,1.0000814,-0.023348421
22800428.107963,0.99980599,-0.023569312
22900431.452557,0.99984777,-0.023643518
23000434.79715,0.99982572,-0.023986207
23100438.141744,1.0000323,-0.023930617
23200441.486337,0.99963236,-0.024103867
23300444.830931,0.9998976,-0.024037264
23400448.175524,0.99984801,-0.024402549
23500451.520118,0.9997834,-0.024451422
23600454.864711,0.9994871,-0.024555553
23700458.209305,0.99959695,-0.024434818
23800461.553898,0.99961823,-0.024707463
23900464.898492,0.9995811,-0.024811609
24000468.243085,0.99961668,-0.024628658
24100471.587679,0.99971539,-0.024926305
24200474.932272,0.99969101,-0.025012793
24300478.276865,0.99978381,-0.025295392
24400481.621459,0.99965489,-0.025351413
24500484.966052,0.99962062,-0.025553247
24600488.310646,0.99970275,-0.02533813
24700491.655239,0.99977833,-0.02549414
24800494.999833,0.99976975,-0.025629167
24900498.344426,0.99962473,-0.025884641
25000501.68902,0.99970263,-0.025978051
25100505.033613,0.99965096,-0.026033208
25200508.378207,0.99945819,-0.026041891
25300511.7228,0.99962842,-0.026128728
25400515.067394,0.99946964,-0.026219323
25500518.411987,0.99946457,-0.026491705
25600521.75658,0.99969327,-0.026318468
25700525.101174,0.99959272,-0.02664021
25800528.445767,0.99957228,-0.026614049
25900531.790361,0.99956948,-0.026808308
26000535.134954,0.99968135,-0.026824851
26100538.479548,0.99963498,-0.027015507
26200541.824141,0.99945039,-0.027068855
26300545.168735,0.99943298,-0.027217876
26400548.513328,0.99961269,-0.027263366
26500551.857922,0.99945968,-0.027646367
26600555.202515,0.9993332,-0.027473217
26700558.547109,0.99945837,-0.027698111
26800561.891702,0.99942946,-0.02774745
26900565.236296,0.99950987,-0.027888013
27000568.580889,0.99960983,-0.028018849
27100571.925482,0.99960011,-0.028167957
27200575.270076,0.99948591,-0.028199591
27300578.614669,0.9994182,-0.028201159
27400581.959263,0.9995057,-0.028383808
27500585.303856,0.99947333,-0.028614933
27600588.64845,0.99973011,-0.028520875
27700591.993043,0.99950373,-0.028684882
27800595.337637,0.99966472,-0.028786223
27900598.68223,0.99941486,-0.028770966
28000602.026824,0.99943841,-0.029011935
28100605.371417,0.99950528,-0.029087141
28200608.716011,0.99960828,-0.029081196
28300612.060604,0.9993878,-0.029207313
28400615.405197,0.9994697,-0.029372375
28500618.749791,0.99955159,-0.029624643
28600622.094384,0.99954337,-0.029540204
28700625.438978,0.99958241,-0.029739989
28800628.783571,0.99950153,-0.029918045
28900632.128165,0.99957091,-0.029993458
29000635.472758,0.99943632,-0.029977208
29100638.817352,0.99958771,-0.03017815
29200642.161945,0.99924159,-0.030208925
29300645.506539,0.99966133,-0.030370608
29400648.851132,0.99924111,-0.030349182
29500652.195726,0.99939793,-0.030564746
29600655.540319,0.99943924,-0.030603968
29700658.884913,0.99939811,-0.030671505
29800662.229506,0.99945211,-0.030823115
29900665.574099,0.99950892,-0.030958282
30000668.918693,0.99941242,-0.031049315
30100672.263286,0.99941951,-0.031166028
30200675.60788,0.99950606,-0.031255286
30300678.952473,0.99942106,-0.03131615
30400682.297067,0.99946946,-0.031496979
30500685.64166,0.99961555,-0.031676494
30600688.986254,0.99955767,-0.031670738
30700692.330847,0.99950671,-0.031879343
30800695.675441,0.9994123,-0.031837218
30900699.020034,0.99948537,-0.031961601
31000702.364628,0.99954581,-0.031951934
31100705.709221,0.99945182,-0.032223165
31200709.053815,0.99952346,-0.032335181
31300712.398408,0.99959254,-0.032464217
31400715.743001,0.99942958,-0.032469247
31500719.087595,0.99952632,-0.032707766
31600722.432188,0.99954772,-0.032720834
31700725.776782,0.99958199,-0.032954123
31800729.121375,0.99948865,-0.032929767
31900732.465969,0.99948317,-0.032965224
32000735.810562,0.99948871,-0.033213917
32100739.155156,0.9994511,-0.033282984
32200742.499749,0.9994148,-0.033396646
32300745.844343,0.99936897,-0.033391044
32400749.188936,0.99954438,-0.033522621
32500752.53353,0.99942511,-0.033717342
32600755.878123,0.99950445,-0.033768717
32700759.222716,0.99950486,-0.033908457
32800762.56731,0.99943632,-0.034009691
32900765.911903,0.99942648,-0.034206502
33000769.256497,0.99946427,-0.034098636
33100772.60109,0.99944955,-0.034270465
33200775.945684,0.99932951,-0.034435838
33300779.290277,0.99921322,-0.03447153
33400782.634871,0.99935097,-0.03457503
33500785.979464,0.99934781,-0.034559283
33600789.324058,0.99930167,-0.034831449
33700792.668651,0.99935377,-0.034981046
33800796.013245,0.99934971,-0.034871679
33900799.357838,0.99924392,-0.035051696
34000802.702432,0.99932718,-0.035227124
34100806.047025,0.9994204,-0.035298057
34200809.391618,0.99925703,-0.035425592
34300812.736212,0.99938697,-0.03553411
34400816.080805,0.99925619,-0.03565352
34500819.425399,0.99937856,-0.035735425
34600822.769992,0.99924421,-0.035813846
34700826.114586,0.99916685,-0.035955273
34800829.459179,0.99932706,-0.035965707
34900832.803773,0.99941552,-0.036102083
35000836.148366,0.99930841,-0.036237247
35100839.49296,0.9992069,-0.036216352
35200842.837553,0.99919462,-0.036399223
35300846.182147,0.9993273,-0.036710348
35400849.52674,0.9992767,-0.036666751
35500852.871333,0.99932909,-0.036774084
35600856.215927,0.9992556,-0.036853153
35700859.56052,0.99937099,-0.03701283
35800862.905114,0.99933612,-0.037118871
35900866.249707,0.99914843,-0.037085406
36000869.594301,0.99921918,-0.037304889
36100872.938894,0.99929839,-0.037358157
36200876.283488,0.99926597,-0.037515588
36300879.628081,0.99917293,-0.037586
36400882.972675,0.99919188,-0.037642743
36500886.317268,0.99929327,-0.037855644
36600889.661862,0.99924165,-0.037970889
36700893.006455,0.99922723,-0.03798062
36800896.351049,0.99929464,-0.038080428
36900899.695642,0.99921882,-0.038132161
37000903.040235,0.99915606,-0.038275618
37100906.384829,0.9992038,-0.03835272
37200909.729422,0.99918747,-0.038508613
37300913.074016,0.99919683,-0.038598154
37400916.418609,0.99914342,-0.038710412
37500919.763203,0.99928516,-0.038839106
37600923.107796,0.99923784,-0.038926803
37700926.45239,0.9991315,-0.03912681
37800929.796983,0.99930495,-0.039153975
37900933.141577,0.999174,-0.039175835
38000936.48617,0.99922526,-0.039382964
38100939.830764,0.99915999,-0.039518572
38200943.175357,0.99912727,-0.039566141
38300946.51995,0.99919206,-0.039747279
38400949.864544,0.99910152,-0.039752115
38500953.209137,0.99909198,-0.039824318
38600956.553731,0.99913037,-0.039945617
38700959.898324,0.99915975,-0.040097617
38800963.242918,0.9991622,-0.040103287
38900966.587511,0.99920535,-0.040278323
39000969.932105,0.99918407,-0.04038468
39100973.276698,0.99911845,-0.04045945
39200976.621292,0.99918377,-0.040643603
39300979.965885,0.99918973,-0.040717352
39400983.310479,0.99916708,-0.040785793
39500986.655072,0.99916464,-0.040832829
39600989.999666,0.9991079,-0.041011341
39700993.344259,0.99917358,-0.04113524
39800996.688852,0.99905896,-0.041205786
39901000.033446,0.99904221,-0.041383628
40001003.378039,0.99919647,-0.041414957
40101006.722633,0.99922258,-0.041492306
40201010.067226,0.99909317,-0.041659825
40301013.41182,0.99910289,-0.041622482
40401016.756413,0.99909246,-0.041793913
40501020.101007,0.99918556,-0.041947894
40601023.4456,0.99915802,-0.042055424
40701026.790194,0.99912429,-0.04210997
40801030.134787,0.99910837,-0.042175047
40901033.479381,0.99916667,-0.042382147
41001036.823974,0.99906886,-0.042465113
41101040.168568,0.99909931,-0.042574529
41201043.513161,0.99914879,-0.042606398
41301046.857754,0.9990347,-0.042651035
41401050.202348,0.99901825,-0.042747747
41501053.546941,0.99893564,-0.043046873
41601056.891535,0.99897838,-0.043067776
41701060.236128,0.99904674,-0.043164603
41801063.580722,0.998936,-0.043220419
41901066.925315,0.99897873,-0.043408789
42001070.269909,0.99903154,-0.043495722
42101073.614502,0.99900627,-0.043616951
42201076.959096,0.99895364,-0.043675415
42301080.303689,0.99901438,-0.043709878
42401083.648283,0.99899352,-0.04389675
42501086.992876,0.9990375,-0.043973628
42601090.337469,0.9990375,-0.044076283
42701093.682063,0.99899989,-0.044239774
42801097.026656,0.99898106,-0.044285595
42901100.37125,0.99896705,-0.044347901
43001103.715843,0.99910223,-0.044461757
43101107.060437,0.99897301,-0.044595506
43201110.40503,0.99890202,-0.044765025
43301113.749624,0.99894631,-0.044831656
43401117.094217,0.99888527,-0.04496621
43501120.438811,0.99896222,-0.044997036
43601123.783404,0.99902254,-0.04507507
43701127.127998,0.99895936,-0.045262225
43801130.472591,0.99894434,-0.045252267
43901133.817185,0.99904746,-0.045452435
44001137.161778,0.99896491,-0.045521155
44101140.506371,0.99899811,-0.045660388
44201143.850965,0.99896443,-0.045750432
44301147.195558,0.99894178,-0.045848843
44401150.540152,0.99895298,-0.045901347
44501153.884745,0.99887735,-0.046027735
44601157.229339,0.99897891,-0.046036556
44701160.573932,0.99888504,-0.046177987
44801163.918526,0.99889153,-0.046307907
44901167.263119,0.99888515,-0.046433322
45001170.607713,0.99886042,-0.046574507
45101173.952306,0.99881351,-0.046656795
45201177.2969,0.99890375,-0.046768334
45301180.641493,0.99881405,-0.046888679
45401183.986086,0.99898541,-0.046953015
45501187.33068,0.99900824,-0.047070801
45601190.675273,0.9989121,-0.047142338
45701194.019867,0.99883777,-0.047267485
45801197.36446,0.99899566,-0.047330737
45901200.709054,0.99890763,-0.047537278
46001204.053647,0.99902624,-0.047571626
46101207.398241,0.99901366,-0.04764061
46201210.742834,0.99886155,-0.047837429
46301214.087428,0.99902278,-0.047919475
46401217.432021,0.99891555,-0.047988549
46501220.776615,0.99892545,-0.048110463
46601224.121208,0.99884361,-0.048252732
46701227.465802,0.99886799,-0.048298966
46801230.810395,0.99880117,-0.048364285
46901234.154988,0.99881911,-0.048492447
47001237.499582,0.99892324,-0.04864734
47101240.844175,0.99894404,-0.048735511
47201244.188769,0.99884027,-0.048785008
47301247.533362,0.99881721,-0.048935533
47401250.877956,0.99883413,-0.049038507
47501254.222549,0.99882203,-0.049109541
47601257.567143,0.99879158,-0.049276151
47701260.911736,0.99881637,-0.049377136
47801264.25633,0.99877936,-0.049494516
47901267.600923,0.99883193,-0.049517065
48001270.945517,0.99887317,-0.04957528
48101274.29011,0.99883169,-0.04977889
48201277.634704,0.998833,-0.04993749
48301280.979297,0.99884945,-0.049948063
48401284.32389,0.99877077,-0.050063908
48501287.668484,0.99879897,-0.050080389
48601291.013077,0.99889332,-0.050232366
48701294.357671,0.99880964,-0.050307985
48801297.702264,0.99877697,-0.050483406
48901301.046858,0.99880821,-0.050574314
49001304.391451,0.99875325,-0.050710313
49101307.736045,0.99871325,-0.050750718
49201311.080638,0.99884862,-0.05086467
49301314.425232,0.99874389,-0.051083755
49401317.769825,0.99879491,-0.051081851
49501321.114419,0.99883282,-0.051130097
49601324.459012,0.9987914,-0.051283732
49701327.803605,0.99872279,-0.051364731
49801331.148199,0.99880064,-0.051540062
49901334.492792,0.99878424,-0.051584795
50001337.837386,0.99873352,-0.051673032
50101341.181979,0.99862653,-0.051851187
50201344.526573,0.99873918,-0.051921446
50301347.871166,0.99868405,-0.05202055
50401351.21576,0.99875534,-0.052113261
50501354.560353,0.99881262,-0.052216567
50601357.904947,0.99868089,-0.052363586
50701361.24954,0.99862093,-0.052432418
50801364.594134,0.99872905,-0.052535735
50901367.938727,0.99872673,-0.052644763
51001371.283321,0.99868852,-0.052728441
51101374.627914,0.99865359,-0.052850448
51201377.972507,0.99868703,-0.05292936
51301381.317101,0.99851435,-0.053067088
51401384.661694,0.99869913,-0.053170323
51501388.006288,0.99864668,-0.0533242
51601391.350881,0.99872017,-0.05332493
51701394.695475,0.9986608,-0.05348156
51801398.040068,0.99869144,-0.053571787
51901401.384662,0.99857378,-0.053612802
52001404.729255,0.99862617,-0.053723942
52101408.073849,0.99862182,-0.053847674
52201411.418442,0.99860352,-0.054026261
52301414.763036,0.99864715,-0.054045819
52401418.107629,0.9985913,-0.054138862
52501421.452222,0.99859631,-0.054285016
52601424.796816,0.99864751,-0.054379735
52701428.141409,0.99871206,-0.054497987
52801431.486003,0.99867892,-0.054617863
52901434.830596,0.998676,-0.054652631
53001438.17519,0.99872172,-0.054665945
53101441.519783,0.99873155,-0.05480548
53201444.864377,0.99870443,-0.054990593
53301448.20897,0.99867964,-0.055025544
53401451.553564,0.99841708,-0.055125594
53501454.898157,0.99857378,-0.055229869
53601458.242751,0.99865919,-0.055415429
53701461.587344,0.99853873,-0.055391625
53801464.931938,0.99860269,-0.055638451
53901468.276531,0.99868375,-0.055581853
54001471.621124,0.99861026,-0.055746656
54101474.965718,0.99846101,-0.055936124
54201478.310311,0.99855655,-0.056043237
54301481.654905,0.99848682,-0.055976182
54401484.999498,0.99852252,-0.056274276
54501488.344092,0.998734,-0.056118421
54601491.688685,0.99862397,-0.056392621
54701495.033279,0.9984926,-0.056423146
54801498.377872,0.99854732,-0.05651274
54901501.722466,0.99824202,-0.056881759
55001505.067059,0.99842298,-0.056891009
55101508.411653,0.99839711,-0.056958973
55201511.756246,0.99841475,-0.0571042
55301515.100839,0.99824715,-0.057159483
55401518.445433,0.99841821,-0.05744699
55501521.790026,0.99850887,-0.057274185
55601525.13462,0.99846858,-0.057551328
55701528.479213,0.99841475,-0.057521511
55801531.823807,0.99846667,-0.057684205
55901535.1684,0.99819678,-0.057882778
56001538.512994,0.99838287,-0.057686072
56101541.857587,0.99825728,-0.057998825
56201545.202181,0.9984147,-0.058023348
56301548.546774,0.99832112,-0.05817711
56401551.891368,0.99817258,-0.058044251
56501555.235961,0.99832356,-0.058299817
56601558.580555,0.99832225,-0.058451802
56701561.925148,0.99841768,-0.058607139
56801565.269741,0.99816495,-0.058724511
56901568.614335,0.99836427,-0.058864329
57001571.958928,0.99831259,-0.058775213
57101575.303522,0.99839538,-0.058765978
57201578.648115,0.99835861,-0.058967143
57301581.992709,0.99829262,-0.059096523
57401585.337302,0.9983626,-0.059246887
57501588.681896,0.99829835,-0.059387088
57601592.026489,0.99829096,-0.059458889
57701595.371083,0.99852753,-0.059486259
57801598.715676,0.99822897,-0.05966397
57901602.06027,0.99831992,-0.059795164
58001605.404863,0.99843371,-0.05986822
58101608.749457,0.99825823,-0.059950817
58201612.09405,0.9983232,-0.060015403
58301615.438643,0.99830848,-0.060247574
58401618.783237,0.99820489,-0.060259629
58501622.12783,0.99832356,-0.060486283
58601625.472424,0.99826235,-0.060541499
